EXPLAIN
TAG	GALVEIS
TITLE	LABEL	0050_EIS_+Westart_PEHV75AH	Test &Identifier
DATE	LABEL	12/15/2023	Date
TIME	LABEL	16:10:21	Time
NOTES	NOTES	1	&Notes...
	
PSTAT	PSTAT	REF3000-24148	Potentiostat
IDCREQ	QUANT	0.00000E+000	DC &Current (A)
FREQINIT	QUANT	1.00000E+004	Initial Fre&q. (Hz)
FREQFINAL	QUANT	1.00000E-002	Final Fre&q. (Hz)
PTSPERDEC	QUANT	5.00000E+000	Points/&decade
IACREQ	QUANT	2.12164E+000	AC &Current (A rms)
AREA	QUANT	0.00000E+000	&Area (cm^2)
CONDIT	TWOPARAM	F	1.50000E+001	0.00000E+000	Conditionin&g	Time(s)	E(V)
DELAY	TWOPARAM	T	3.00000E+001	0.00000E+000	Init. De&lay	Time(s)	Stab.(mV/s)
SPEED	SELECTOR	1	&Optimize for:
THD	SELECTOR	1	T&HD
DRIFTCOR	SELECTOR	0	&Drift Correction
ZGUESS	QUANT	1.00000E-003	E&stimated Z (ohms)
OCVCURVE	TABLE	116
	Pt	T	Vf	Vm	Ach	Over	Temp
	#	s	V vs. Ref.	V	V	bits	deg C
	0	0.258333	3.21245E+000	3.21245E+000	1.64265E-003	...........	-327.72
	1	0.516667	3.21245E+000	3.21246E+000	1.53405E-003	...........	-327.72
	2	0.775	3.21245E+000	3.21245E+000	1.63438E-003	...........	-327.72
	3	1.03333	3.21245E+000	3.21245E+000	1.52418E-003	...........	-327.72
	4	1.29167	3.21245E+000	3.21248E+000	1.63618E-003	...........	-327.72
	5	1.55	3.21246E+000	3.21246E+000	1.52752E-003	...........	-327.72
	6	1.80833	3.21246E+000	3.21246E+000	1.64618E-003	...........	-327.72
	7	2.06667	3.21246E+000	3.21246E+000	1.53705E-003	...........	-327.72
	8	2.325	3.21246E+000	3.21245E+000	1.64352E-003	...........	-327.72
	9	2.58333	3.21246E+000	3.21246E+000	1.52712E-003	...........	-327.72
	10	2.84167	3.21246E+000	3.21246E+000	1.64052E-003	...........	-327.72
	11	3.1	3.21246E+000	3.21245E+000	1.52598E-003	...........	-327.72
	12	3.35833	3.21246E+000	3.21247E+000	1.63818E-003	...........	-327.72
	13	3.61667	3.21246E+000	3.21246E+000	1.53012E-003	...........	-327.72
	14	3.875	3.21246E+000	3.21246E+000	1.63965E-003	...........	-327.72
	15	4.13333	3.21246E+000	3.21246E+000	1.52612E-003	...........	-327.72
	16	4.39167	3.21246E+000	3.21245E+000	1.63945E-003	...........	-327.72
	17	4.65	3.21246E+000	3.21247E+000	1.53405E-003	...........	-327.72
	18	4.90833	3.21246E+000	3.21247E+000	1.65012E-003	...........	-327.72
	19	5.16667	3.21246E+000	3.21246E+000	1.53478E-003	...........	-327.72
	20	5.425	3.21246E+000	3.21247E+000	1.63805E-003	...........	-327.72
	21	5.68333	3.21246E+000	3.21246E+000	1.53165E-003	...........	-327.72
	22	5.94167	3.21246E+000	3.21246E+000	1.64172E-003	...........	-327.72
	23	6.2	3.21246E+000	3.21248E+000	1.53325E-003	...........	-327.72
	24	6.45833	3.21246E+000	3.21247E+000	1.64072E-003	...........	-327.72
	25	6.71667	3.21247E+000	3.21247E+000	1.52345E-003	...........	-327.72
	26	6.975	3.21247E+000	3.21247E+000	1.63145E-003	...........	-327.72
	27	7.23333	3.21247E+000	3.21246E+000	1.53025E-003	...........	-327.72
	28	7.49167	3.21247E+000	3.21246E+000	1.63772E-003	...........	-327.72
	29	7.75	3.21247E+000	3.21247E+000	1.52638E-003	...........	-327.72
	30	8.00833	3.21247E+000	3.21248E+000	1.64172E-003	...........	-327.72
	31	8.26667	3.21246E+000	3.21246E+000	1.52565E-003	...........	-327.72
	32	8.525	3.21247E+000	3.21247E+000	1.64452E-003	...........	-327.72
	33	8.78333	3.21247E+000	3.21248E+000	1.52505E-003	...........	-327.72
	34	9.04167	3.21247E+000	3.21247E+000	1.64092E-003	...........	-327.72
	35	9.3	3.21247E+000	3.21247E+000	1.52238E-003	...........	-327.72
	36	9.5583	3.21247E+000	3.21248E+000	1.63852E-003	...........	-327.72
	37	9.8167	3.21247E+000	3.21246E+000	1.52518E-003	...........	-327.72
	38	10.075	3.21247E+000	3.21248E+000	1.63765E-003	...........	-327.72
	39	10.3333	3.21247E+000	3.21246E+000	1.53278E-003	...........	-327.72
	40	10.5917	3.21247E+000	3.21248E+000	1.63952E-003	...........	-327.72
	41	10.85	3.21247E+000	3.21248E+000	1.52398E-003	...........	-327.72
	42	11.1083	3.21247E+000	3.21248E+000	1.63485E-003	...........	-327.72
	43	11.3667	3.21247E+000	3.21247E+000	1.51832E-003	...........	-327.72
	44	11.625	3.21247E+000	3.21247E+000	1.63712E-003	...........	-327.72
	45	11.8833	3.21247E+000	3.21246E+000	1.52752E-003	...........	-327.72
	46	12.1417	3.21247E+000	3.21248E+000	1.64525E-003	...........	-327.72
	47	12.4	3.21247E+000	3.21248E+000	1.53212E-003	...........	-327.72
	48	12.6583	3.21247E+000	3.21248E+000	1.64072E-003	...........	-327.72
	49	12.9167	3.21247E+000	3.21246E+000	1.52618E-003	...........	-327.72
	50	13.175	3.21248E+000	3.21247E+000	1.63538E-003	...........	-327.72
	51	13.4333	3.21247E+000	3.21248E+000	1.52285E-003	...........	-327.72
	52	13.6917	3.21247E+000	3.21248E+000	1.63505E-003	...........	-327.72
	53	13.95	3.21247E+000	3.21247E+000	1.52778E-003	...........	-327.72
	54	14.2083	3.21247E+000	3.21247E+000	1.64112E-003	...........	-327.72
	55	14.4667	3.21248E+000	3.21249E+000	1.53412E-003	...........	-327.72
	56	14.725	3.21248E+000	3.21248E+000	1.64052E-003	...........	-327.72
	57	14.9833	3.21248E+000	3.21248E+000	1.53798E-003	...........	-327.72
	58	15.2417	3.21248E+000	3.21247E+000	1.63418E-003	...........	-327.72
	59	15.5	3.21248E+000	3.21247E+000	1.52258E-003	...........	-327.72
	60	15.7583	3.21248E+000	3.21248E+000	1.63472E-003	...........	-327.72
	61	16.0167	3.21248E+000	3.21249E+000	1.52172E-003	...........	-327.72
	62	16.275	3.21247E+000	3.21248E+000	1.64025E-003	...........	-327.72
	63	16.5333	3.21248E+000	3.21248E+000	1.52225E-003	...........	-327.72
	64	16.7917	3.21248E+000	3.21247E+000	1.63932E-003	...........	-327.72
	65	17.05	3.21248E+000	3.21248E+000	1.52612E-003	...........	-327.72
	66	17.3083	3.21248E+000	3.21248E+000	1.63398E-003	...........	-327.72
	67	17.5667	3.21248E+000	3.21247E+000	1.52418E-003	...........	-327.72
	68	17.825	3.21248E+000	3.21249E+000	1.64478E-003	...........	-327.72
	69	18.0833	3.21248E+000	3.21248E+000	1.52265E-003	...........	-327.72
	70	18.3417	3.21248E+000	3.21249E+000	1.63385E-003	...........	-327.72
	71	18.6	3.21248E+000	3.21249E+000	1.51918E-003	...........	-327.72
	72	18.8583	3.21248E+000	3.21249E+000	1.63658E-003	...........	-327.72
	73	19.1167	3.21249E+000	3.21249E+000	1.52478E-003	...........	-327.72
	74	19.375	3.21249E+000	3.21248E+000	1.63378E-003	...........	-327.72
	75	19.6333	3.21249E+000	3.21248E+000	1.52398E-003	...........	-327.72
	76	19.8917	3.21248E+000	3.21249E+000	1.62858E-003	...........	-327.72
	77	20.15	3.21248E+000	3.21248E+000	1.51918E-003	...........	-327.72
	78	20.4083	3.21248E+000	3.21248E+000	1.63725E-003	...........	-327.72
	79	20.6667	3.21248E+000	3.21250E+000	1.51505E-003	...........	-327.72
	80	20.925	3.21249E+000	3.21250E+000	1.63085E-003	...........	-327.72
	81	21.1833	3.21249E+000	3.21249E+000	1.51692E-003	...........	-327.72
	82	21.4417	3.21249E+000	3.21250E+000	1.63358E-003	...........	-327.72
	83	21.7	3.21249E+000	3.21249E+000	1.51692E-003	...........	-327.72
	84	21.9583	3.21250E+000	3.21249E+000	1.64045E-003	...........	-327.72
	85	22.2167	3.21250E+000	3.21249E+000	1.38138E-003	...........	-327.72
	86	22.475	3.21249E+000	3.21251E+000	1.31072E-003	...........	-327.72
	87	22.7333	3.21249E+000	3.21249E+000	1.30885E-003	...........	-327.72
	88	22.9917	3.21249E+000	3.21249E+000	1.30998E-003	...........	-327.72
	89	23.25	3.21249E+000	3.21249E+000	1.30972E-003	...........	-327.72
	90	23.5083	3.21249E+000	3.21249E+000	1.30998E-003	...........	-327.72
	91	23.7667	3.21249E+000	3.21249E+000	1.30798E-003	...........	-327.72
	92	24.025	3.21249E+000	3.21249E+000	1.30645E-003	...........	-327.72
	93	24.2833	3.21249E+000	3.21249E+000	1.30645E-003	...........	-327.72
	94	24.5417	3.21249E+000	3.21249E+000	1.30032E-003	...........	-327.72
	95	24.8	3.21249E+000	3.21250E+000	1.30732E-003	...........	-327.72
	96	25.0583	3.21249E+000	3.21249E+000	1.30272E-003	...........	-327.72
	97	25.3167	3.21249E+000	3.21249E+000	1.30812E-003	...........	-327.72
	98	25.575	3.21249E+000	3.21250E+000	1.30758E-003	...........	-327.72
	99	25.8333	3.21249E+000	3.21249E+000	1.30552E-003	...........	-327.72
	100	26.0917	3.21249E+000	3.21250E+000	1.30172E-003	...........	-327.72
	101	26.35	3.21249E+000	3.21251E+000	1.30292E-003	...........	-327.72
	102	26.6083	3.21250E+000	3.21250E+000	1.30698E-003	...........	-327.72
	103	26.8667	3.21250E+000	3.21249E+000	1.30312E-003	...........	-327.72
	104	27.125	3.21250E+000	3.21249E+000	1.30158E-003	...........	-327.72
	105	27.3833	3.21250E+000	3.21250E+000	1.30312E-003	...........	-327.72
	106	27.6417	3.21250E+000	3.21249E+000	1.30792E-003	...........	-327.72
	107	27.9	3.21249E+000	3.21251E+000	1.31072E-003	...........	-327.72
	108	28.1583	3.21249E+000	3.21251E+000	1.30532E-003	...........	-327.72
	109	28.4167	3.21250E+000	3.21251E+000	1.30345E-003	...........	-327.72
	110	28.675	3.21250E+000	3.21250E+000	1.30532E-003	...........	-327.72
	111	28.9333	3.21251E+000	3.21251E+000	1.30725E-003	...........	-327.72
	112	29.1917	3.21251E+000	3.21251E+000	1.30572E-003	...........	-327.72
	113	29.45	3.21251E+000	3.21252E+000	1.30898E-003	...........	-327.72
	114	29.7083	3.21251E+000	3.21251E+000	1.31065E-003	...........	-327.72
	115	29.9667	3.21251E+000	3.21251E+000	1.31458E-003	...........	-327.72
EOC	QUANT	3.212511	Open Circuit (V)
PSTATMODEL	IQUANT	5	Pstat Model
PSTATSECTION	LABEL	REF3000-24148	Pstat Section
PSTATSERIALNO	LABEL	24148	Pstat Serial Number
CTRLMODE	IQUANT	0	Control Mode
ELECTROMETER	IQUANT	0	RE=0 or CS=1
IESTAB	IQUANT	0	I/E Stability
CASPEED	IQUANT	4	Control Amp Speed
CONVENTION	IQUANT	1	Current Convention
ICHRANGE	IQUANT	2	Ich Range
ICHRANGEMODE	TOGGLE	F	Ich Auto Range
ICHOFFSETENABLE	TOGGLE	T	Ich Offset Enable
ICHOFFSET	QUANT	0	Ich Offset (V)
ICHFILTER	IQUANT	3	Ich Filter
VCHRANGE	IQUANT	2	Vch Range
VCHRANGEMODE	TOGGLE	F	Vch Auto Range
VCHOFFSETENABLE	TOGGLE	T	Vch Offset Enable
VCHOFFSET	QUANT	0	Vch Offset (V)
VCHFILTER	IQUANT	3	Vch Filter
ACHRANGE	IQUANT	2	Ach Range
ACHOFFSETENABLE	TOGGLE	F	Ach Offset Enable
ACHOFFSET	QUANT	0	Ach Offset (V)
ACHFILTER	IQUANT	1	Ach Filter
IERANGELOWERLIMIT	IQUANT	2	I/E Range Lower Limit
IERANGEMODE	TOGGLE	F	I/E AutoRange
IERANGE	IQUANT	11	I/E Range
POSFEEDENABLE	TOGGLE	F	Positive Feedback IR Comp
POSFEEDRESISTANCE	QUANT	0	Positive Feedback Resistance (ohm)
ACHSELECT	IQUANT	4	Ach Select
SENSECABLEID	IQUANT	14	Sense Cable ID
PWRCABLEID	IQUANT	7	Power Cable ID
DCCALDATE	LABEL	12/13/2023	DC Calibration Date
ACCALDATE	LABEL	12/13/2023	AC Calibration Date
THERMOSELECT	IQUANT	1	Thermo Select
FRAMEWORKVERSION	LABEL	7.10.2	Framework Version
INSTRUMENTVERSION	LABEL	4.90	Instrument Version
COMMVERSION	LABEL	2.24	Communications Version
CPUPLDVERSION	LABEL	0.00	CPU PLD Version
CTRLPLDVERSION	LABEL	0.00	CTRL PLD Version
PSTATPLDVERSION	LABEL	0.00	PSTAT PLD Version
COMPLIANCEVOLTAGE	IQUANT	0	Compliance Voltage
ZCURVE	TABLE
	Pt	Time	Freq	Zreal	Zimag	Zsig	Zmod	Zphz	Idc	Vdc	IERange	Imod	Vmod	Temp	Ithd	Vthd	IHr1	IHi1	VHr1	VHi1	IHr2	IHi2	VHr2	VHi2	IHr3	IHi3	VHr3	VHi3	IHr4	IHi4	VHr4	VHi4	IHr5	IHi5	VHr5	VHi5	IHr6	IHi6	VHr6	VHi6	IHr7	IHi7	VHr7	VHi7	IHr8	IHi8	VHr8	VHi8	IHr9	IHi9	VHr9	VHi9	IHr10	IHi10	VHr10	VHi10
	#	s	Hz	ohm	ohm	V	ohm	°	A	V	#	A	V	°C	#	#	A	A	V	V	A	A	V	V	A	A	V	V	A	A	V	V	A	A	V	V	A	A	V	V	A	A	V	V	A	A	V	V	A	A	V	V	A	A	V	V
	0	5	10078.13	0.0006418	0.0043224	1	0.0043697	81.55444	-0.0014495	3.212274	12	2.07951	0.0090862	-327.7158	0.030494	0.1328702	-152.9558	109.6799	-0.5784486	-0.5845717	1.926636	-0.7660518	0.0069346	0.0157239	-2.498605	2.038704	-0.0288506	-0.0288507	0.4856157	0.990688	-0.0161721	0.0092642	-2.656371	-2.506502	0.0472493	-0.0582099	-0.319132	0.5312434	-0.0137191	-0.0067316	0.598759	-0.9125348	0.0277992	0.0150599	-0.2109385	-0.0370762	0.0006564	-0.0068138	1.156544	0.8451217	-0.0271132	0.0444281	-0.1076066	-0.0490775	0.00152	-0.0045409
	1	7	6328.125	0.0005897	0.0027447	1	0.0028073	77.87499	-0.0019091	3.212277	12	2.091522	0.0058725	-327.7158	0.0201884	0.0957701	-116.4176	149.2733	-0.4799703	-0.2283348	1.034824	-0.879425	0.004627	0.0053339	-0.4321377	1.776922	-0.0147164	-0.0015275	0.5988053	0.3300341	-0.0032783	0.0065625	-2.334385	1.0346	-0.0156797	-0.0293999	0.1792948	0.4669624	-0.0072908	0.0032685	-0.514158	-0.4121497	0.0068271	-0.0102541	-0.1714804	0.1606676	-0.0035877	-0.0034404	0.0794855	-1.294559	0.030215	-0.0005585	-0.0802599	0.0393252	-0.0010395	-0.0019266
	2	8	3984.375	0.000552	0.0017401	1	0.0018255	72.40126	-0.0018505	3.212282	12	2.097167	0.0038294	-327.7158	0.0131573	0.0646261	-46.09326	184.1323	-0.34584	0.0228906	0.1662261	-0.8773818	0.0027076	0.0004549	0.7542396	0.6451026	-0.0023203	0.0045672	0.2782311	-0.2825365	0.0022705	0.0020635	1.209096	1.26157	-0.0094951	0.0108902	0.2450945	-0.2650544	0.0028832	0.0023129	0.0869836	0.3283992	-0.0037184	0.0015552	0.1835865	-0.0220182	0.0004928	0.002507	0.2366095	0.947861	-0.0137386	0.0046683	0.0907142	-0.0377826	0.0007339	0.0015023
	3	10	2527.573	0.0005314	0.0011019	1	0.0012233	64.25181	-0.002274	3.212292	12	2.100386	0.0025702	-327.7158	0.0088326	0.0431714	-62.25846	-179.6215	0.164439	-0.1645452	-0.4696672	-0.3894019	0.0007265	-0.0009997	-0.3195843	0.4063448	-0.0017435	-0.0006425	-0.2183192	-0.0659264	0.0002794	-0.0007069	0.481409	1.129254	-0.0056014	0.0033879	-0.1663321	0.2049151	-0.0014076	-0.000872	0.0952552	0.0936998	-0.0004935	0.0009848	-0.0569071	0.1060186	-0.0009282	-0.0004675	0.6124309	-0.3703125	0.0042205	0.0053747	0.0734543	0.03784	-0.0003579	0.0007644
	4	12	1577.524	0.0005263	0.0006783	1	0.0008585	52.19564	-0.0015697	3.212287	12	2.104677	0.0018075	-327.7158	0.0057313	0.0264053	90.11995	167.8279	-0.0661879	0.1496084	-0.3343657	-0.2046952	0.0003898	-3.844501E-005	-0.0045658	-0.372045	-3.337861E-006	-0.000783	-0.1811999	0.0183285	-4.959107E-005	-0.0011581	-0.7643621	-0.2990949	0.000211	-0.0028727	0.0125303	0.200583	-0.0010529	0.0004027	0.0840766	0.1097744	-0.0005445	0.0005832	0.0465124	0.010237	0.0005621	0.0002356	0.0636923	0.3564233	-0.0020933	0.0011543	0.0094557	0.0026035	-0.0004599	-0.000221
	5	13	998.264	0.0005246	0.0004116	1	0.0006668	38.12094	-0.0018552	3.212291	12	2.108281	0.0014063	-327.7158	0.003468	0.0132371	157.2527	108.0916	0.0381385	0.1214323	-0.2265495	0.1168492	9.298325E-006	-0.0003421	-0.2025151	-0.06694	0.0003531	-0.0008567	0.0542727	0.0672719	-0.0002632	0.0003242	0.0914017	0.4417868	-0.0003524	2.205372E-005	0.0367837	-0.0892344	2.598762E-005	8.821487E-005	0.0665765	-0.048305	-8.84384E-005	0.0006969	-0.0224535	-0.0062366	7.009506E-005	-0.0004342	-0.2886164	-0.1250453	0.0005965	-0.0007069	0.0195811	0.0226605	-3.308059E-005	-0.0001087
	6	15	627.7902	0.0005374	0.000238	1	0.0005877	23.88907	-0.0015683	3.212296	12	2.111805	0.0012415	-327.7158	0.0020879	0.0071258	-171.8691	-83.63649	-0.0725298	-0.0858269	-0.1083541	0.1110804	0.0003245	-5.459786E-005	0.1376543	-0.0415061	-0.0001537	7.581711E-005	0.0532076	0.0188398	4.148483E-005	0.0001591	-0.1965718	-0.1636905	0.0003881	-0.0002367	-0.0155588	-0.0572901	0.0001928	2.69413E-005	0.0150979	0.0779369	7.617474E-005	5.578995E-005	-0.0173497	0.0221057	-0.0003145	-0.0001403	0.113375	-0.1470901	4.053116E-006	0.0002955	0.0270686	-0.007442	7.581711E-005	0.0001063
	7	16	397.9953	0.0005506	0.0001269	1	0.000565	12.97676	-0.0015626	3.212295	12	2.114734	0.0011953	-327.7158	0.001352	0.0076907	-170.7827	86.42185	-0.1050201	0.0259672	0.1007237	0.0458313	0.000129	-0.0004053	-0.1101028	-0.0040026	-0.000284	-0.0001481	-0.0350638	0.0161691	-9.429456E-005	5.960464E-006	0.1065355	-0.1189101	-0.0001296	-3.290177E-005	0.0110077	-0.0340714	6.29425E-005	3.218651E-006	0.0039686	0.0414261	-0.0003023	0.0002604	0.0030029	0.0113097	-7.271768E-005	-0.0001973	-0.1077439	-0.0262563	0.0002091	-0.0002708	-0.0117946	-0.0039893	6.526709E-005	-0.0002308
	8	18	252.4038	0.0005634	6.056922E-005	1	0.0005667	6.135671	-0.0016162	3.212303	12	2.116483	0.0011997	-327.7158	0.0008751	0.0076275	62.11996	181.2103	0.0240607	0.1058893	-0.0590224	-0.0456143	-0.0003023	0.0001321	0.0219161	-0.0499219	-0.0003903	-9.059907E-005	-0.0272829	-1.0252E-005	0.0000953	-6.389619E-005	-0.0131416	-0.1077431	-0.0003847	-5.221368E-005	-0.0255179	0.015451	4.398823E-005	-0.0001533	-0.0032307	-0.0181464	-1.645088E-005	4.172325E-005	-0.0019864	0.0084588	0.0001092	2.980232E-005	-0.0752549	0.0030036	6.67572E-005	-0.0004189	0.0004721	0.0079334	-7.486344E-005	-0.0001642
	9	19	158.3615	0.0005727	1.344435E-005	1	0.0005729	1.344805	-0.0015533	3.212311	12	2.117699	0.0012135	-327.7158	0.0006614	0.0135531	-69.23049	178.7327	-0.0420466	0.1014662	0.0235022	-0.0467407	-0.0001476	-0.0003014	0.0386993	0.04216	0.0006306	-0.0005178	0.017127	-0.0100293	5.805492E-005	0.0002825	-0.0256871	0.0824664	0.0007243	-0.0001037	0.015201	0.0112752	3.966689E-005	0.000128	-0.005654	0.0108273	0.000262	-0.0006421	0.0009812	0.0047571	-9.083749E-005	2.384186E-006	-0.0353601	0.0195196	0.000463	-0.0003068	-0.0034506	0.0054152	-5.626679E-005	-5.722047E-006
	10	21	100.4464	0.0006199	-1.755409E-005	1	0.0006201	-1.622098	-0.0021458	3.212317	12	2.118852	0.0013144	-327.7158	0.0005023	0.009225	52.58881	184.4252	0.0358591	0.1134289	-0.0296881	-0.0261927	-0.0001447	-0.0001174	0.0289261	-0.01549	0.0002921	-0.0001609	-0.0148263	0.001291	-0.000257	0.0004457	0.0318457	-0.0566387	0.0005682	-4.124642E-005	-0.0130898	-0.0001606	-3.57628E-006	-4.291535E-005	0.0097593	-0.0130655	-8.249284E-005	-0.0001676	-0.0018289	0.0035692	0.0001806	6.151199E-005	-0.0361585	-0.0204242	-5.555154E-005	-0.0005994	0.0004236	0.0037899	6.568432E-005	-0.0001714
	11	23	63.3446	0.0006323	-3.558293E-005	1	0.0006333	-3.221017	-0.0020262	3.212318	12	2.119907	0.0013429	-327.7158	0.0005974	0.0080333	168.543	91.69601	0.1098669	0.0519892	-0.0065219	0.0181311	-0.0002494	0.000188	-0.0124638	-0.0492293	-0.000257	4.6134E-005	0.0126359	-0.0049849	-2.884865E-005	0.0001552	-0.0047114	0.0680383	0.0000997	-0.0002441	0.0016282	-0.0089202	-3.695489E-005	-3.862382E-005	0.0442557	-0.0026939	0.0005798	-0.0001674	0.0024024	0.0077548	7.104874E-005	1.311302E-005	-0.0480546	0.0301681	-0.0004085	0.0003381	0.0042919	0.0011878	0.000097	0.0001743
	12	25	39.72458	0.0006411	-5.291037E-005	1	0.0006433	-4.717814	-0.0017805	3.212312	12	2.119038	0.0013636	-327.7158	0.0002809	0.0016507	-191.1932	15.16195	-0.1217985	0.0199198	0.0129886	0.0106946	6.03199E-005	8.621812E-005	0.0153391	-0.0160753	-8.273126E-005	4.386902E-005	-0.0087004	-0.002914	-4.386903E-005	-3.385545E-005	-0.0205045	0.0353177	3.790855E-005	9.655952E-006	6.151199E-005	0.006198	-1.120567E-005	4.076958E-005	0.0020943	-0.0018371	-1.621246E-005	3.290176E-005	-0.0034351	7.903576E-005	-2.002716E-005	-5.948545E-005	0.0173395	0.0028365	-2.932549E-005	-3.099442E-006	0.0005026	0.0024379	5.412102E-005	-7.867814E-005
	13	26	24.93351	0.0006607	-6.763342E-005	1	0.0006642	-5.844775	-0.0017782	3.21232	12	2.118993	0.0014078	-327.7158	0.0002506	0.0013319	-177.6599	-72.25038	-0.1223176	-0.0356822	0.0013132	0.0124269	-8.2016E-005	5.403161E-005	0.0133443	0.015491	-3.910066E-005	-8.907915E-005	0.0035408	-0.0069587	4.005432E-005	2.390146E-005	-0.0030031	-0.0375721	-2.408028E-005	2.151728E-005	-0.0008705	-0.0051737	4.172325E-005	2.652407E-005	-0.0022306	0.0011293	-6.91414E-006	-2.503395E-006	0.0027089	0.001002	1.740456E-005	-1.525879E-005	-0.0057058	-0.0132662	2.646446E-005	1.549721E-005	0.0017531	-0.0005732	-5.006791E-006	-4.971028E-005
	14	28	15.83615	0.0006838	-8.358938E-005	1	0.0006889	-6.969614	-0.0017909	3.212326	12	2.118844	0.00146	-327.7158	0.0002355	0.0015393	155.1995	-112.6548	0.0967116	-0.0900555	0.0087092	-0.0081743	8.130074E-005	-4.74155E-005	0.0104313	0.0173184	-3.480912E-005	-0.0001516	0.0037436	0.0057801	-3.266336E-005	-2.235174E-005	-0.0341132	0.0098547	1.28746E-005	-4.22597E-005	0.0011928	-0.0033975	8.583069E-006	2.890825E-005	0.0002639	-0.0022292	4.529953E-006	-1.597405E-005	-0.0006258	-0.0027354	1.955032E-005	-1.955032E-005	-0.0044973	-0.0113869	1.382828E-005	-2.026558E-006	-0.0017898	0.0012594	3.623962E-005	-3.671647E-005
