EXPLAIN
TAG	GALVEIS
TITLE	LABEL	0050_EIS_+Westart_PEHV75AH	Test &Identifier
DATE	LABEL	12/18/2023	Date
TIME	LABEL	13:44:06	Time
NOTES	NOTES	1	&Notes...
	
PSTAT	PSTAT	REF3000-24148	Potentiostat
IDCREQ	QUANT	0.00000E+000	DC &Current (A)
FREQINIT	QUANT	1.00000E+004	Initial Fre&q. (Hz)
FREQFINAL	QUANT	1.00000E-002	Final Fre&q. (Hz)
PTSPERDEC	QUANT	5.00000E+000	Points/&decade
IACREQ	QUANT	2.12164E+000	AC &Current (A rms)
AREA	QUANT	0.00000E+000	&Area (cm^2)
CONDIT	TWOPARAM	F	1.50000E+001	0.00000E+000	Conditionin&g	Time(s)	E(V)
DELAY	TWOPARAM	T	3.00000E+001	0.00000E+000	Init. De&lay	Time(s)	Stab.(mV/s)
SPEED	SELECTOR	1	&Optimize for:
THD	SELECTOR	1	T&HD
DRIFTCOR	SELECTOR	0	&Drift Correction
ZGUESS	QUANT	1.00000E-003	E&stimated Z (ohms)
OCVCURVE	TABLE	116
	Pt	T	Vf	Vm	Ach	Over	Temp
	#	s	V vs. Ref.	V	V	bits	deg C
	0	0.258333	3.57044E+000	3.57044E+000	3.01212E-003	...........	-327.72
	1	0.516667	3.57044E+000	3.57040E+000	2.88318E-003	...........	-327.72
	2	0.775	3.57044E+000	3.57036E+000	2.96398E-003	...........	-327.72
	3	1.03333	3.57042E+000	3.57041E+000	2.90912E-003	...........	-327.72
	4	1.29167	3.57041E+000	3.57043E+000	3.01925E-003	...........	-327.72
	5	1.55	3.57040E+000	3.57040E+000	2.90378E-003	...........	-327.72
	6	1.80833	3.57040E+000	3.57038E+000	2.97938E-003	...........	-327.72
	7	2.06667	3.57040E+000	3.57043E+000	2.91898E-003	...........	-327.72
	8	2.325	3.57040E+000	3.57042E+000	3.00752E-003	...........	-327.72
	9	2.58333	3.57041E+000	3.57037E+000	2.89712E-003	...........	-327.72
	10	2.84167	3.57041E+000	3.57040E+000	2.98745E-003	...........	-327.72
	11	3.1	3.57041E+000	3.57044E+000	2.92072E-003	...........	-327.72
	12	3.35833	3.57040E+000	3.57040E+000	2.99538E-003	...........	-327.72
	13	3.61667	3.57041E+000	3.57038E+000	2.89825E-003	...........	-327.72
	14	3.875	3.57041E+000	3.57040E+000	2.99132E-003	...........	-327.72
	15	4.13333	3.57040E+000	3.57044E+000	2.92845E-003	...........	-327.72
	16	4.39167	3.57040E+000	3.57040E+000	2.98912E-003	...........	-327.72
	17	4.65	3.57040E+000	3.57037E+000	2.89485E-003	...........	-327.72
	18	4.90833	3.57041E+000	3.57043E+000	3.01512E-003	...........	-327.72
	19	5.16667	3.57040E+000	3.57043E+000	2.91198E-003	...........	-327.72
	20	5.425	3.57040E+000	3.57038E+000	2.99152E-003	...........	-327.72
	21	5.68333	3.57041E+000	3.57034E+000	2.87978E-003	...........	-327.72
	22	5.94167	3.57040E+000	3.57043E+000	3.02152E-003	...........	-327.72
	23	6.2	3.57039E+000	3.57043E+000	2.92005E-003	...........	-327.72
	24	6.45833	3.57039E+000	3.57040E+000	2.99238E-003	...........	-327.72
	25	6.71667	3.57040E+000	3.57037E+000	2.89352E-003	...........	-327.72
	26	6.975	3.57040E+000	3.57045E+000	3.02125E-003	...........	-327.72
	27	7.23333	3.57041E+000	3.57043E+000	2.92758E-003	...........	-327.72
	28	7.49167	3.57041E+000	3.57038E+000	2.98325E-003	...........	-327.72
	29	7.75	3.57041E+000	3.57039E+000	2.89905E-003	...........	-327.72
	30	8.00833	3.57041E+000	3.57043E+000	3.00865E-003	...........	-327.72
	31	8.26667	3.57040E+000	3.57041E+000	2.91085E-003	...........	-327.72
	32	8.525	3.57040E+000	3.57034E+000	2.95998E-003	...........	-327.72
	33	8.78333	3.57040E+000	3.57038E+000	2.89485E-003	...........	-327.72
	34	9.04167	3.57039E+000	3.57041E+000	3.00725E-003	...........	-327.72
	35	9.3	3.57038E+000	3.57041E+000	2.90865E-003	...........	-327.72
	36	9.5583	3.57038E+000	3.57036E+000	2.97392E-003	...........	-327.72
	37	9.8167	3.57039E+000	3.57041E+000	2.91685E-003	...........	-327.72
	38	10.075	3.57039E+000	3.57044E+000	3.02832E-003	...........	-327.72
	39	10.3333	3.57040E+000	3.57037E+000	2.89605E-003	...........	-327.72
	40	10.5917	3.57040E+000	3.57036E+000	2.98025E-003	...........	-327.72
	41	10.85	3.57040E+000	3.57041E+000	2.91872E-003	...........	-327.72
	42	11.1083	3.57039E+000	3.57041E+000	3.00365E-003	...........	-327.72
	43	11.3667	3.57039E+000	3.57035E+000	2.87425E-003	...........	-327.72
	44	11.625	3.57039E+000	3.57038E+000	2.98618E-003	...........	-327.72
	45	11.8833	3.57039E+000	3.57041E+000	2.91385E-003	...........	-327.72
	46	12.1417	3.57039E+000	3.57043E+000	3.02405E-003	...........	-327.72
	47	12.4	3.57039E+000	3.57037E+000	2.90332E-003	...........	-327.72
	48	12.6583	3.57040E+000	3.57037E+000	2.97932E-003	...........	-327.72
	49	12.9167	3.57040E+000	3.57043E+000	2.92852E-003	...........	-327.72
	50	13.175	3.57040E+000	3.57040E+000	3.00578E-003	...........	-327.72
	51	13.4333	3.57040E+000	3.57036E+000	2.90198E-003	...........	-327.72
	52	13.6917	3.57040E+000	3.57036E+000	2.96625E-003	...........	-327.72
	53	13.95	3.57039E+000	3.57042E+000	2.92818E-003	...........	-327.72
	54	14.2083	3.57038E+000	3.57041E+000	3.01045E-003	...........	-327.72
	55	14.4667	3.57039E+000	3.57039E+000	2.91358E-003	...........	-327.72
	56	14.725	3.57039E+000	3.57040E+000	3.00452E-003	...........	-327.72
	57	14.9833	3.57040E+000	3.57042E+000	2.93685E-003	...........	-327.72
	58	15.2417	3.57040E+000	3.57039E+000	3.00885E-003	...........	-327.72
	59	15.5	3.57040E+000	3.57037E+000	2.90618E-003	...........	-327.72
	60	15.7583	3.57040E+000	3.57040E+000	2.99585E-003	...........	-327.72
	61	16.0167	3.57040E+000	3.57043E+000	2.93392E-003	...........	-327.72
	62	16.275	3.57040E+000	3.57041E+000	3.00498E-003	...........	-327.72
	63	16.5333	3.57040E+000	3.57040E+000	2.91572E-003	...........	-327.72
	64	16.7917	3.57041E+000	3.57043E+000	3.02765E-003	...........	-327.72
	65	17.05	3.57041E+000	3.57045E+000	2.94825E-003	...........	-327.72
	66	17.3083	3.57042E+000	3.57039E+000	2.99412E-003	...........	-327.72
	67	17.5667	3.57042E+000	3.57042E+000	2.91865E-003	...........	-327.72
	68	17.825	3.57042E+000	3.57048E+000	3.05492E-003	...........	-327.72
	69	18.0833	3.57043E+000	3.57046E+000	2.95092E-003	...........	-327.72
	70	18.3417	3.57043E+000	3.57041E+000	2.99312E-003	...........	-327.72
	71	18.6	3.57044E+000	3.57041E+000	2.92652E-003	...........	-327.72
	72	18.8583	3.57044E+000	3.57044E+000	3.02172E-003	...........	-327.72
	73	19.1167	3.57043E+000	3.57045E+000	2.95078E-003	...........	-327.72
	74	19.375	3.57043E+000	3.57042E+000	3.02292E-003	...........	-327.72
	75	19.6333	3.57043E+000	3.57039E+000	2.91685E-003	...........	-327.72
	76	19.8917	3.57043E+000	3.57044E+000	3.02765E-003	...........	-327.72
	77	20.15	3.57042E+000	3.57047E+000	2.96132E-003	...........	-327.72
	78	20.4083	3.57043E+000	3.57043E+000	3.01905E-003	...........	-327.72
	79	20.6667	3.57043E+000	3.57044E+000	2.94318E-003	...........	-327.72
	80	20.925	3.57044E+000	3.57048E+000	3.05712E-003	...........	-327.72
	81	21.1833	3.57045E+000	3.57046E+000	2.95098E-003	...........	-327.72
	82	21.4417	3.57045E+000	3.57044E+000	3.03678E-003	...........	-327.72
	83	21.7	3.57046E+000	3.57045E+000	2.95738E-003	...........	-327.72
	84	21.9583	3.57046E+000	3.57048E+000	3.05685E-003	...........	-327.72
	85	22.2167	3.57045E+000	3.57043E+000	2.79892E-003	...........	-327.72
	86	22.475	3.57045E+000	3.57040E+000	2.73538E-003	...........	-327.72
	87	22.7333	3.57045E+000	3.57044E+000	2.75438E-003	...........	-327.72
	88	22.9917	3.57044E+000	3.57044E+000	2.75198E-003	...........	-327.72
	89	23.25	3.57043E+000	3.57042E+000	2.73452E-003	...........	-327.72
	90	23.5083	3.57043E+000	3.57040E+000	2.73125E-003	...........	-327.72
	91	23.7667	3.57042E+000	3.57044E+000	2.76478E-003	...........	-327.72
	92	24.025	3.57042E+000	3.57045E+000	2.76332E-003	...........	-327.72
	93	24.2833	3.57042E+000	3.57038E+000	2.72465E-003	...........	-327.72
	94	24.5417	3.57042E+000	3.57039E+000	2.72992E-003	...........	-327.72
	95	24.8	3.57042E+000	3.57044E+000	2.75418E-003	...........	-327.72
	96	25.0583	3.57041E+000	3.57044E+000	2.75765E-003	...........	-327.72
	97	25.3167	3.57041E+000	3.57041E+000	2.73845E-003	...........	-327.72
	98	25.575	3.57042E+000	3.57039E+000	2.73912E-003	...........	-327.72
	99	25.8333	3.57042E+000	3.57043E+000	2.76292E-003	...........	-327.72
	100	26.0917	3.57042E+000	3.57044E+000	2.75712E-003	...........	-327.72
	101	26.35	3.57042E+000	3.57039E+000	2.72665E-003	...........	-327.72
	102	26.6083	3.57042E+000	3.57039E+000	2.73392E-003	...........	-327.72
	103	26.8667	3.57042E+000	3.57043E+000	2.75292E-003	...........	-327.72
	104	27.125	3.57041E+000	3.57042E+000	2.74858E-003	...........	-327.72
	105	27.3833	3.57041E+000	3.57039E+000	2.73658E-003	...........	-327.72
	106	27.6417	3.57041E+000	3.57041E+000	2.74485E-003	...........	-327.72
	107	27.9	3.57041E+000	3.57043E+000	2.75018E-003	...........	-327.72
	108	28.1583	3.57041E+000	3.57041E+000	2.72872E-003	...........	-327.72
	109	28.4167	3.57041E+000	3.57041E+000	2.73492E-003	...........	-327.72
	110	28.675	3.57041E+000	3.57042E+000	2.75345E-003	...........	-327.72
	111	28.9333	3.57041E+000	3.57044E+000	2.74625E-003	...........	-327.72
	112	29.1917	3.57042E+000	3.57040E+000	2.72238E-003	...........	-327.72
	113	29.45	3.57042E+000	3.57040E+000	2.73798E-003	...........	-327.72
	114	29.7083	3.57042E+000	3.57045E+000	2.76572E-003	...........	-327.72
	115	29.9667	3.57042E+000	3.57043E+000	2.75025E-003	...........	-327.72
EOC	QUANT	3.570417	Open Circuit (V)
PSTATMODEL	IQUANT	5	Pstat Model
PSTATSECTION	LABEL	REF3000-24148	Pstat Section
PSTATSERIALNO	LABEL	24148	Pstat Serial Number
CTRLMODE	IQUANT	0	Control Mode
ELECTROMETER	IQUANT	0	RE=0 or CS=1
IESTAB	IQUANT	0	I/E Stability
CASPEED	IQUANT	4	Control Amp Speed
CONVENTION	IQUANT	1	Current Convention
ICHRANGE	IQUANT	2	Ich Range
ICHRANGEMODE	TOGGLE	F	Ich Auto Range
ICHOFFSETENABLE	TOGGLE	T	Ich Offset Enable
ICHOFFSET	QUANT	0	Ich Offset (V)
ICHFILTER	IQUANT	3	Ich Filter
VCHRANGE	IQUANT	2	Vch Range
VCHRANGEMODE	TOGGLE	F	Vch Auto Range
VCHOFFSETENABLE	TOGGLE	T	Vch Offset Enable
VCHOFFSET	QUANT	0	Vch Offset (V)
VCHFILTER	IQUANT	3	Vch Filter
ACHRANGE	IQUANT	2	Ach Range
ACHOFFSETENABLE	TOGGLE	F	Ach Offset Enable
ACHOFFSET	QUANT	0	Ach Offset (V)
ACHFILTER	IQUANT	1	Ach Filter
IERANGELOWERLIMIT	IQUANT	2	I/E Range Lower Limit
IERANGEMODE	TOGGLE	F	I/E AutoRange
IERANGE	IQUANT	11	I/E Range
POSFEEDENABLE	TOGGLE	F	Positive Feedback IR Comp
POSFEEDRESISTANCE	QUANT	0	Positive Feedback Resistance (ohm)
ACHSELECT	IQUANT	4	Ach Select
SENSECABLEID	IQUANT	14	Sense Cable ID
PWRCABLEID	IQUANT	7	Power Cable ID
DCCALDATE	LABEL	12/13/2023	DC Calibration Date
ACCALDATE	LABEL	12/13/2023	AC Calibration Date
THERMOSELECT	IQUANT	1	Thermo Select
FRAMEWORKVERSION	LABEL	7.10.2	Framework Version
INSTRUMENTVERSION	LABEL	4.90	Instrument Version
COMMVERSION	LABEL	2.24	Communications Version
CPUPLDVERSION	LABEL	0.00	CPU PLD Version
CTRLPLDVERSION	LABEL	0.00	CTRL PLD Version
PSTATPLDVERSION	LABEL	0.00	PSTAT PLD Version
COMPLIANCEVOLTAGE	IQUANT	0	Compliance Voltage
ZCURVE	TABLE
	Pt	Time	Freq	Zreal	Zimag	Zsig	Zmod	Zphz	Idc	Vdc	IERange	Imod	Vmod	Temp	Ithd	Vthd	IHr1	IHi1	VHr1	VHi1	IHr2	IHi2	VHr2	VHi2	IHr3	IHi3	VHr3	VHi3	IHr4	IHi4	VHr4	VHi4	IHr5	IHi5	VHr5	VHi5	IHr6	IHi6	VHr6	VHi6	IHr7	IHi7	VHr7	VHi7	IHr8	IHi8	VHr8	VHi8	IHr9	IHi9	VHr9	VHi9	IHr10	IHi10	VHr10	VHi10
	#	s	Hz	ohm	ohm	V	ohm	°	A	V	#	A	V	°C	#	#	A	A	V	V	A	A	V	V	A	A	V	V	A	A	V	V	A	A	V	V	A	A	V	V	A	A	V	V	A	A	V	V	A	A	V	V	A	A	V	V
	0	5	10078.13	0.0006498	0.0044424	1	0.0044897	81.67774	-0.0016094	3.568022	12	2.079825	0.0093371	-327.7158	0.0294258	0.1335918	-46.70519	182.3583	-0.8413012	-0.0800266	-0.5693028	-2.17892	0.018178	-0.0058079	-0.0228834	1.048603	-0.0130301	0.0012705	0.1886181	-1.214716	0.0212901	0.0018799	4.333825	1.487341	-0.0244567	0.0934148	-0.1972118	-0.3967402	0.0096469	-0.0058258	0.004514	0.6772302	-0.0198322	0.0019789	-0.0932398	-0.1312213	0.0041201	-0.0034294	0.996849	0.5651379	-0.018177	0.0390399	-0.0533002	0.0959535	-0.0042869	-0.0018272
	1	7	6328.125	0.0005945	0.0028218	1	0.0028838	78.10294	-0.0021131	3.568027	12	2.09159	0.0060326	-327.7158	0.0224753	0.1056976	87.51291	-167.8673	0.5267756	0.1436467	0.6762012	-1.384913	0.0073452	0.0032208	1.008075	0.0503608	0.0001833	0.0077312	0.737468	0.0648787	-0.0003418	0.0084424	0.3130626	-3.486737	0.0469704	0.0005569	0.3682542	-0.0113856	0.0007354	0.0059538	0.358199	0.6376987	-0.011236	0.0075731	0.0954078	0.2180515	-0.0045724	0.0023671	1.043497	-0.2953349	0.0090911	0.0244535	-0.0279841	-0.0396543	0.0010538	-0.0008876
	2	8	3984.375	0.0005583	0.0017911	1	0.0018761	72.6869	-0.0021012	3.568016	12	2.09721	0.0039356	-327.7158	0.0174205	0.0826392	-9.77481	-189.5659	0.3336375	-0.1247871	-0.4724558	-0.961	0.00357	-0.0017676	0.4516981	-0.891247	0.0044785	0.00214	0.0172598	-0.4289776	0.0025119	0.0001066	-1.70265	2.037794	-0.018734	-0.0130377	-0.2927442	-0.0446339	0.0002675	-0.0031903	-0.3406929	-0.6568814	0.0073264	-0.0045786	-0.1543079	-0.1670413	0.0020661	-0.0022435	0.140904	0.9181606	-0.013864	0.0034142	0.0460376	-0.037791	0.0004556	0.0007055
	3	10	2527.573	0.0005351	0.0011393	1	0.0012587	64.84335	-0.0023927	3.568023	12	2.100491	0.0026446	-327.7158	0.0138514	0.0643404	-186.9553	34.51553	-0.1399136	-0.1942071	0.4433441	0.6110575	-0.0016639	0.0012853	0.8914077	0.2966685	-0.0005774	0.0031288	0.0172559	-0.2419512	0.0009043	0.0004411	2.026887	0.2958445	-0.0003335	0.0111504	0.2273309	-0.1300107	0.0010223	0.0014374	0.3998802	-0.5820916	0.0048318	0.0026671	-0.1674027	-0.0674369	0.0005553	-0.0015823	0.3014396	-0.7296077	0.0074058	0.002279	-0.0408291	0.0506198	-0.0006855	-0.0005312
	4	12	1577.524	0.0005149	0.0006944	1	0.0008645	53.44403	-0.0019231	3.568021	12	2.104655	0.00182	-327.7158	0.0095928	0.0421108	-176.7501	-71.0383	-0.0419567	-0.1592958	-0.3079395	0.3809059	-0.0003939	-0.0007278	-0.3309743	0.4546869	-0.0004396	0.0001798	0.1130907	0.1374867	-0.0011342	0.0001785	-1.437504	0.0754793	-0.0015121	-0.0043647	-0.2559264	-0.0236801	0.0002079	-0.0014527	-0.4450161	-0.2909681	0.0010545	-0.0019765	-0.0002686	0.0362126	7.379055E-005	0.0002813	-0.2946456	-0.480796	0.0029984	-0.0026619	-0.0792235	0.0698287	-0.0008275	-0.0007329
	5	13	998.264	0.0005432	0.000415	1	0.0006835	37.37896	-0.0021605	3.568026	12	2.109339	0.0014422	-327.7158	0.005844	0.0321375	-76.35671	-174.9812	0.0310116	-0.1267986	-0.2701731	-0.1802435	0.0004518	-0.0008745	-0.0732165	-0.361853	0.0015032	0.0003665	-0.0139573	-0.057003	0.0003833	0.0003824	0.533031	0.6227182	-0.0016832	0.0021892	-0.0354266	0.1457386	-0.0007856	-0.0001093	-0.303958	0.1001472	0.0002395	-0.0010724	-0.0553117	-0.0147042	0.0003531	-0.0004252	0.2183859	-0.3876527	0.0019817	0.0004642	0.0246332	-0.0301096	-6.377698E-005	0.0001678
	6	15	627.7902	0.00053	0.0002637	1	0.000592	26.45236	-0.0020749	3.568029	12	2.114083	0.0012519	-327.7158	0.0033063	0.0156027	149.3206	119.6505	0.0476708	0.1027892	-0.1823419	0.0638063	0.0005288	0.000356	0.1648364	-0.0274999	0.0011344	-0.0001974	-0.0068665	0.0292614	-0.0003741	0.0001061	-0.0472453	0.4784746	-0.0004745	0.0002114	0.0542435	-0.0588148	0.0002849	-0.0001204	-0.1343249	0.0527732	6.389618E-005	-0.0001414	0.009501	-0.0061827	-9.322167E-005	-0.0001252	-0.1462624	-0.231786	0.000421	-0.0008041	0.0084435	0.0189881	3.85046E-005	-5.364419E-005
	7	17	397.9953	0.0005517	0.0001547	1	0.000573	15.65968	-0.0021104	3.568029	12	2.118078	0.001214	-327.7158	0.0022903	0.0152058	-36.19942	188.2578	-0.0490606	0.098315	0.0325741	-0.1258784	-0.0005727	-4.267694E-005	-0.1382444	0.0162781	-0.0011935	-0.0004475	0.0143823	-0.0018152	0.0003898	0.0004365	0.2371576	0.2318078	3.767014E-005	2.43187E-005	0.0415997	-0.0350319	0.0001125	2.157688E-005	-0.0803269	-0.0863962	-0.0002072	-4.395844E-006	-0.0028394	0.0115985	0.0001087	4.36306E-005	0.0462934	0.1638273	-0.0003154	0.0005531	0.0155512	-0.0075628	1.823902E-005	-0.0001299
	8	18	252.4038	0.0005713	8.394431E-005	1	0.0005774	8.358959	-0.0021448	3.568037	12	2.120341	0.0012247	-327.7158	0.0018151	0.0077114	-7.912134	-191.7482	0.0115499	-0.1102465	-0.0213732	-0.0921612	-0.0005157	5.483627E-006	0.0877239	-0.1048691	-4.22001E-005	0.000314	-0.0039538	-0.0035728	0.0001978	0.000134	-0.2324888	0.0757153	4.321337E-005	5.149841E-005	-0.0189846	-0.0377377	-0.00016	-7.963182E-005	0.0464799	-0.0715672	4.720688E-005	-0.0001993	0.009089	0.0061307	0.0001049	-1.478195E-005	-0.1159973	0.1057893	-6.437303E-005	0.0004379	-0.0040641	-0.0061964	0.0001321	-6.53267E-005
	9	20	158.3615	0.0005513	4.363006E-005	1	0.0005531	4.524687	-0.001943	3.56803	12	2.120278	0.001173	-327.7158	0.0012395	0.0143462	-110.3607	-156.9978	-0.0540276	-0.091392	-0.0604731	-0.0111852	-0.0003428	0.0004518	-0.0506795	-0.0547184	-0.0000973	-0.0002031	0.0043143	0.0064915	-0.0004067	-0.0003123	0.1840444	-0.0039005	-0.0001683	-0.0007582	0.0191598	0.0213392	2.875924E-005	-6.079675E-005	0.0027175	0.0674636	0.0004861	0.0007043	-0.0084519	0.0056698	3.063679E-005	0.0001485	-0.0862796	-0.0183374	0.0005629	-7.390977E-006	-0.0020386	-0.0044196	-2.69413E-005	-6.175042E-005
	10	21	100.4464	0.0005848	1.830992E-005	1	0.000585	1.793463	-0.0021279	3.568021	12	2.119697	0.0012405	-327.7158	0.000882	0.0083691	-190.4255	-23.36149	-0.11096	-0.0171408	0.0038731	0.0418017	-0.0003347	9.143353E-005	-0.004385	0.0683442	-0.0004063	-0.000298	-0.0025575	-0.0039721	-0.0003972	-0.0002234	-0.0581408	0.0996776	-0.0004425	-0.0001364	-0.0152631	0.0163598	-1.0252E-005	-0.0001442	-0.0476992	0.038528	-8.833409E-005	-2.408028E-005	-0.0009044	0.0047462	-6.27041E-005	-0.0001085	-0.0218723	0.06357	-4.363061E-005	-0.0001833	-0.0060365	0.0021613	-7.236005E-005	-2.884865E-005
	11	23	63.3446	0.0005803	2.340946E-006	1	0.0005803	0.2311266	-0.0017666	3.568025	12	2.11972	0.0012305	-327.7158	0.0006575	0.0075921	-191.837	2.636429	-0.1113651	0.0010887	0.0095744	0.0254367	-4.458428E-005	0.0001405	0.0342922	0.0516065	0.0001647	4.410744E-006	0.0017846	-0.0018214	2.264977E-005	-5.50747E-005	-0.0007203	0.0922186	0.0002134	0.0003002	0.000266	0.0137899	-0.0001137	0.0001895	0.007131	0.0402021	-0.000507	0.0003185	0.0010246	0.0022883	-6.103517E-005	-1.096726E-005	0.0290946	0.0081997	-0.0002709	-0.0001762	-0.0026039	0.0063691	-7.05123E-005	-7.891656E-005
	12	25	39.72458	0.0005974	-9.232488E-006	1	0.0005975	-0.885397	-0.0019615	3.568026	12	2.120724	0.0012675	-327.7158	0.0004308	0.0019769	134.7937	136.6526	0.0818629	0.080364	-0.0152454	0.0085582	-0.0001166	0.0001409	0.032048	0.0026197	-3.647805E-005	7.605553E-005	0.0058875	0.0009423	4.076958E-005	-2.354384E-005	-0.0575812	0.0150493	-2.551079E-005	1.072884E-006	0.0094626	0.0028683	1.0252E-005	6.198883E-006	-0.0246191	-0.0170589	2.622604E-006	-5.102159E-005	-0.0020146	0.0024687	-1.525879E-005	6.103516E-005	0.0088562	-0.0287222	2.264977E-005	-9.655953E-006	-0.0033011	-0.0016294	2.551079E-005	-6.437303E-006
	13	27	24.93351	0.000606	-1.37527E-005	1	0.0006061	-1.300166	-0.0019842	3.568029	12	2.120712	0.0012858	-327.7158	0.0003286	0.0016677	134.2824	-137.1536	0.0794721	-0.085012	0.0106809	-0.009872	7.247925E-005	-6.896258E-005	0.0046484	0.0258715	-0.0001109	-8.773805E-005	0.0066211	0.0003782	-1.049042E-005	-5.602838E-006	0.0031397	0.0462703	1.311302E-005	-2.95043E-005	-0.0057422	-0.0020756	-1.192093E-006	2.253056E-005	0.0089333	-0.0170012	4.172325E-005	1.072884E-006	-0.0025297	0.0012016	-6.675721E-006	1.28746E-005	-0.021201	-0.0030331	5.00679E-006	2.372265E-005	0.0024287	0.0015656	-1.549721E-005	-5.650521E-005
	14	28	15.83615	0.0006137	-1.407821E-005	1	0.0006139	-1.314063	-0.0019738	3.568027	12	2.120554	0.0013022	-327.7158	0.0002682	0.0015444	132.0804	-139.2557	0.079103	-0.0873712	0.0052859	-0.0082808	5.435944E-005	-6.327034E-005	0.0083044	0.0195308	-0.0001254	-5.412103E-005	0.0058172	0.0003464	1.144409E-005	-2.43783E-005	-0.0031329	0.0398285	-1.454353E-005	1.162291E-005	-0.0045434	-0.0013255	-4.363061E-005	-6.794931E-006	0.0063783	-0.0115436	-5.960465E-006	1.573563E-005	-0.0019695	0.0012271	-2.861023E-005	4.291534E-006	-0.015668	0.004588	-3.57628E-006	2.169609E-005	0.0018485	0.0012785	-4.911424E-005	-2.193451E-005
