EXPLAIN
TAG	GALVEIS
TITLE	LABEL	0050_EIS_+Westart_PEHV75AH	Test &Identifier
DATE	LABEL	12/18/2023	Date
TIME	LABEL	15:59:30	Time
NOTES	NOTES	1	&Notes...
	
PSTAT	PSTAT	REF3000-24148	Potentiostat
IDCREQ	QUANT	0.00000E+000	DC &Current (A)
FREQINIT	QUANT	1.00000E+004	Initial Fre&q. (Hz)
FREQFINAL	QUANT	1.00000E-002	Final Fre&q. (Hz)
PTSPERDEC	QUANT	5.00000E+000	Points/&decade
IACREQ	QUANT	2.12164E+000	AC &Current (A rms)
AREA	QUANT	0.00000E+000	&Area (cm^2)
CONDIT	TWOPARAM	F	1.50000E+001	0.00000E+000	Conditionin&g	Time(s)	E(V)
DELAY	TWOPARAM	T	3.00000E+001	0.00000E+000	Init. De&lay	Time(s)	Stab.(mV/s)
SPEED	SELECTOR	1	&Optimize for:
THD	SELECTOR	1	T&HD
DRIFTCOR	SELECTOR	0	&Drift Correction
ZGUESS	QUANT	1.00000E-003	E&stimated Z (ohms)
OCVCURVE	TABLE	116
	Pt	T	Vf	Vm	Ach	Over	Temp
	#	s	V vs. Ref.	V	V	bits	deg C
	0	0.258333	3.56662E+000	3.56662E+000	1.70505E-003	...........	-327.72
	1	0.516667	3.56662E+000	3.56663E+000	1.61572E-003	...........	-327.72
	2	0.775	3.56662E+000	3.56658E+000	1.70532E-003	...........	-327.72
	3	1.03333	3.56662E+000	3.56655E+000	1.59572E-003	...........	-327.72
	4	1.29167	3.56661E+000	3.56659E+000	1.71025E-003	...........	-327.72
	5	1.55	3.56659E+000	3.56660E+000	1.61125E-003	...........	-327.72
	6	1.80833	3.56658E+000	3.56655E+000	1.70365E-003	...........	-327.72
	7	2.06667	3.56658E+000	3.56652E+000	1.60745E-003	...........	-327.72
	8	2.325	3.56657E+000	3.56660E+000	1.71298E-003	...........	-327.72
	9	2.58333	3.56657E+000	3.56661E+000	1.60165E-003	...........	-327.72
	10	2.84167	3.56657E+000	3.56653E+000	1.70378E-003	...........	-327.72
	11	3.1	3.56657E+000	3.56651E+000	1.60478E-003	...........	-327.72
	12	3.35833	3.56657E+000	3.56657E+000	1.71345E-003	...........	-327.72
	13	3.61667	3.56656E+000	3.56660E+000	1.61145E-003	...........	-327.72
	14	3.875	3.56655E+000	3.56655E+000	1.70298E-003	...........	-327.72
	15	4.13333	3.56656E+000	3.56654E+000	1.60565E-003	...........	-327.72
	16	4.39167	3.56656E+000	3.56656E+000	1.71738E-003	...........	-327.72
	17	4.65	3.56656E+000	3.56659E+000	1.61052E-003	...........	-327.72
	18	4.90833	3.56656E+000	3.56652E+000	1.70352E-003	...........	-327.72
	19	5.16667	3.56656E+000	3.56653E+000	1.60372E-003	...........	-327.72
	20	5.425	3.56656E+000	3.56662E+000	1.71738E-003	...........	-327.72
	21	5.68333	3.56656E+000	3.56656E+000	1.61532E-003	...........	-327.72
	22	5.94167	3.56656E+000	3.56649E+000	1.70758E-003	...........	-327.72
	23	6.2	3.56656E+000	3.56653E+000	1.60198E-003	...........	-327.72
	24	6.45833	3.56655E+000	3.56657E+000	1.70878E-003	...........	-327.72
	25	6.71667	3.56654E+000	3.56650E+000	1.61152E-003	...........	-327.72
	26	6.975	3.56654E+000	3.56648E+000	1.70798E-003	...........	-327.72
	27	7.23333	3.56653E+000	3.56651E+000	1.59965E-003	...........	-327.72
	28	7.49167	3.56652E+000	3.56657E+000	1.71312E-003	...........	-327.72
	29	7.75	3.56652E+000	3.56652E+000	1.60498E-003	...........	-327.72
	30	8.00833	3.56652E+000	3.56650E+000	1.70752E-003	...........	-327.72
	31	8.26667	3.56653E+000	3.56656E+000	1.60258E-003	...........	-327.72
	32	8.525	3.56653E+000	3.56655E+000	1.70945E-003	...........	-327.72
	33	8.78333	3.56653E+000	3.56648E+000	1.60238E-003	...........	-327.72
	34	9.04167	3.56653E+000	3.56650E+000	1.70525E-003	...........	-327.72
	35	9.3	3.56653E+000	3.56657E+000	1.61465E-003	...........	-327.72
	36	9.5583	3.56652E+000	3.56658E+000	1.71145E-003	...........	-327.72
	37	9.8167	3.56653E+000	3.56651E+000	1.60312E-003	...........	-327.72
	38	10.075	3.56654E+000	3.56646E+000	1.70472E-003	...........	-327.72
	39	10.3333	3.56654E+000	3.56653E+000	1.61498E-003	...........	-327.72
	40	10.5917	3.56652E+000	3.56657E+000	1.71598E-003	...........	-327.72
	41	10.85	3.56652E+000	3.56650E+000	1.60872E-003	...........	-327.72
	42	11.1083	3.56652E+000	3.56653E+000	1.71158E-003	...........	-327.72
	43	11.3667	3.56653E+000	3.56654E+000	1.60598E-003	...........	-327.72
	44	11.625	3.56653E+000	3.56653E+000	1.70772E-003	...........	-327.72
	45	11.8833	3.56653E+000	3.56646E+000	1.60178E-003	...........	-327.72
	46	12.1417	3.56652E+000	3.56651E+000	1.70605E-003	...........	-327.72
	47	12.4	3.56652E+000	3.56654E+000	1.62558E-003	...........	-327.72
	48	12.6583	3.56651E+000	3.56651E+000	1.71658E-003	...........	-327.72
	49	12.9167	3.56651E+000	3.56649E+000	1.60992E-003	...........	-327.72
	50	13.175	3.56651E+000	3.56653E+000	1.70678E-003	...........	-327.72
	51	13.4333	3.56651E+000	3.56657E+000	1.61305E-003	...........	-327.72
	52	13.6917	3.56652E+000	3.56650E+000	1.71412E-003	...........	-327.72
	53	13.95	3.56653E+000	3.56648E+000	1.60058E-003	...........	-327.72
	54	14.2083	3.56653E+000	3.56656E+000	1.71032E-003	...........	-327.72
	55	14.4667	3.56652E+000	3.56654E+000	1.60832E-003	...........	-327.72
	56	14.725	3.56652E+000	3.56649E+000	1.70878E-003	...........	-327.72
	57	14.9833	3.56652E+000	3.56650E+000	1.60092E-003	...........	-327.72
	58	15.2417	3.56652E+000	3.56654E+000	1.71525E-003	...........	-327.72
	59	15.5	3.56652E+000	3.56654E+000	1.61545E-003	...........	-327.72
	60	15.7583	3.56652E+000	3.56646E+000	1.70812E-003	...........	-327.72
	61	16.0167	3.56652E+000	3.56647E+000	1.59952E-003	...........	-327.72
	62	16.275	3.56651E+000	3.56654E+000	1.71338E-003	...........	-327.72
	63	16.5333	3.56650E+000	3.56654E+000	1.61972E-003	...........	-327.72
	64	16.7917	3.56650E+000	3.56645E+000	1.70438E-003	...........	-327.72
	65	17.05	3.56651E+000	3.56647E+000	1.59798E-003	...........	-327.72
	66	17.3083	3.56650E+000	3.56650E+000	1.71625E-003	...........	-327.72
	67	17.5667	3.56649E+000	3.56647E+000	1.60872E-003	...........	-327.72
	68	17.825	3.56648E+000	3.56647E+000	1.69445E-003	...........	-327.72
	69	18.0833	3.56648E+000	3.56650E+000	1.60918E-003	...........	-327.72
	70	18.3417	3.56648E+000	3.56651E+000	1.70865E-003	...........	-327.72
	71	18.6	3.56648E+000	3.56650E+000	1.58765E-003	...........	-327.72
	72	18.8583	3.56649E+000	3.56650E+000	1.70765E-003	...........	-327.72
	73	19.1167	3.56650E+000	3.56652E+000	1.60192E-003	...........	-327.72
	74	19.375	3.56650E+000	3.56657E+000	1.71025E-003	...........	-327.72
	75	19.6333	3.56651E+000	3.56647E+000	1.59358E-003	...........	-327.72
	76	19.8917	3.56652E+000	3.56647E+000	1.70205E-003	...........	-327.72
	77	20.15	3.56652E+000	3.56653E+000	1.61052E-003	...........	-327.72
	78	20.4083	3.56651E+000	3.56653E+000	1.70845E-003	...........	-327.72
	79	20.6667	3.56650E+000	3.56648E+000	1.59032E-003	...........	-327.72
	80	20.925	3.56651E+000	3.56650E+000	1.69432E-003	...........	-327.72
	81	21.1833	3.56651E+000	3.56651E+000	1.59858E-003	...........	-327.72
	82	21.4417	3.56651E+000	3.56653E+000	1.70218E-003	...........	-327.72
	83	21.7	3.56651E+000	3.56648E+000	1.58632E-003	...........	-327.72
	84	21.9583	3.56651E+000	3.56647E+000	1.69758E-003	...........	-327.72
	85	22.2167	3.56650E+000	3.56651E+000	1.38892E-003	...........	-327.72
	86	22.475	3.56650E+000	3.56647E+000	1.29365E-003	...........	-327.72
	87	22.7333	3.56649E+000	3.56644E+000	1.29898E-003	...........	-327.72
	88	22.9917	3.56648E+000	3.56645E+000	1.30025E-003	...........	-327.72
	89	23.25	3.56647E+000	3.56652E+000	1.30005E-003	...........	-327.72
	90	23.5083	3.56647E+000	3.56647E+000	1.29252E-003	...........	-327.72
	91	23.7667	3.56647E+000	3.56647E+000	1.29912E-003	...........	-327.72
	92	24.025	3.56648E+000	3.56645E+000	1.29505E-003	...........	-327.72
	93	24.2833	3.56647E+000	3.56649E+000	1.30078E-003	...........	-327.72
	94	24.5417	3.56647E+000	3.56645E+000	1.29892E-003	...........	-327.72
	95	24.8	3.56647E+000	3.56645E+000	1.30438E-003	...........	-327.72
	96	25.0583	3.56647E+000	3.56649E+000	1.29865E-003	...........	-327.72
	97	25.3167	3.56646E+000	3.56651E+000	1.29738E-003	...........	-327.72
	98	25.575	3.56647E+000	3.56644E+000	1.30058E-003	...........	-327.72
	99	25.8333	3.56648E+000	3.56645E+000	1.29872E-003	...........	-327.72
	100	26.0917	3.56647E+000	3.56647E+000	1.29552E-003	...........	-327.72
	101	26.35	3.56647E+000	3.56648E+000	1.29298E-003	...........	-327.72
	102	26.6083	3.56646E+000	3.56642E+000	1.29665E-003	...........	-327.72
	103	26.8667	3.56646E+000	3.56641E+000	1.30325E-003	...........	-327.72
	104	27.125	3.56645E+000	3.56649E+000	1.30172E-003	...........	-327.72
	105	27.3833	3.56645E+000	3.56650E+000	1.29672E-003	...........	-327.72
	106	27.6417	3.56645E+000	3.56645E+000	1.30385E-003	...........	-327.72
	107	27.9	3.56646E+000	3.56645E+000	1.30558E-003	...........	-327.72
	108	28.1583	3.56647E+000	3.56649E+000	1.30225E-003	...........	-327.72
	109	28.4167	3.56647E+000	3.56651E+000	1.30225E-003	...........	-327.72
	110	28.675	3.56647E+000	3.56643E+000	1.29845E-003	...........	-327.72
	111	28.9333	3.56647E+000	3.56646E+000	1.29812E-003	...........	-327.72
	112	29.1917	3.56647E+000	3.56647E+000	1.30485E-003	...........	-327.72
	113	29.45	3.56647E+000	3.56645E+000	1.30518E-003	...........	-327.72
	114	29.7083	3.56646E+000	3.56644E+000	1.29618E-003	...........	-327.72
	115	29.9667	3.56646E+000	3.56646E+000	1.30672E-003	...........	-327.72
EOC	QUANT	3.566457	Open Circuit (V)
PSTATMODEL	IQUANT	5	Pstat Model
PSTATSECTION	LABEL	REF3000-24148	Pstat Section
PSTATSERIALNO	LABEL	24148	Pstat Serial Number
CTRLMODE	IQUANT	0	Control Mode
ELECTROMETER	IQUANT	0	RE=0 or CS=1
IESTAB	IQUANT	0	I/E Stability
CASPEED	IQUANT	4	Control Amp Speed
CONVENTION	IQUANT	1	Current Convention
ICHRANGE	IQUANT	2	Ich Range
ICHRANGEMODE	TOGGLE	F	Ich Auto Range
ICHOFFSETENABLE	TOGGLE	T	Ich Offset Enable
ICHOFFSET	QUANT	0	Ich Offset (V)
ICHFILTER	IQUANT	3	Ich Filter
VCHRANGE	IQUANT	2	Vch Range
VCHRANGEMODE	TOGGLE	F	Vch Auto Range
VCHOFFSETENABLE	TOGGLE	T	Vch Offset Enable
VCHOFFSET	QUANT	0	Vch Offset (V)
VCHFILTER	IQUANT	3	Vch Filter
ACHRANGE	IQUANT	2	Ach Range
ACHOFFSETENABLE	TOGGLE	F	Ach Offset Enable
ACHOFFSET	QUANT	0	Ach Offset (V)
ACHFILTER	IQUANT	1	Ach Filter
IERANGELOWERLIMIT	IQUANT	2	I/E Range Lower Limit
IERANGEMODE	TOGGLE	F	I/E AutoRange
IERANGE	IQUANT	11	I/E Range
POSFEEDENABLE	TOGGLE	F	Positive Feedback IR Comp
POSFEEDRESISTANCE	QUANT	0	Positive Feedback Resistance (ohm)
ACHSELECT	IQUANT	4	Ach Select
SENSECABLEID	IQUANT	14	Sense Cable ID
PWRCABLEID	IQUANT	7	Power Cable ID
DCCALDATE	LABEL	12/13/2023	DC Calibration Date
ACCALDATE	LABEL	12/13/2023	AC Calibration Date
THERMOSELECT	IQUANT	1	Thermo Select
FRAMEWORKVERSION	LABEL	7.10.2	Framework Version
INSTRUMENTVERSION	LABEL	4.90	Instrument Version
COMMVERSION	LABEL	2.24	Communications Version
CPUPLDVERSION	LABEL	0.00	CPU PLD Version
CTRLPLDVERSION	LABEL	0.00	CTRL PLD Version
PSTATPLDVERSION	LABEL	0.00	PSTAT PLD Version
COMPLIANCEVOLTAGE	IQUANT	0	Compliance Voltage
ZCURVE	TABLE
	Pt	Time	Freq	Zreal	Zimag	Zsig	Zmod	Zphz	Idc	Vdc	IERange	Imod	Vmod	Temp	Ithd	Vthd	IHr1	IHi1	VHr1	VHi1	IHr2	IHi2	VHr2	VHi2	IHr3	IHi3	VHr3	VHi3	IHr4	IHi4	VHr4	VHi4	IHr5	IHi5	VHr5	VHi5	IHr6	IHi6	VHr6	VHi6	IHr7	IHi7	VHr7	VHi7	IHr8	IHi8	VHr8	VHi8	IHr9	IHi9	VHr9	VHi9	IHr10	IHi10	VHr10	VHi10
	#	s	Hz	ohm	ohm	V	ohm	°	A	V	#	A	V	°C	#	#	A	A	V	V	A	A	V	V	A	A	V	V	A	A	V	V	A	A	V	V	A	A	V	V	A	A	V	V	A	A	V	V	A	A	V	V	A	A	V	V
	0	5	10078.13	0.0006497	0.0044439	1	0.0044911	81.68234	-0.0021076	3.566688	12	2.079775	0.0093398	-327.7158	0.0300128	0.1355921	52.76298	180.6938	-0.764852	0.359997	-2.203797	-0.5365745	0.0034728	-0.018925	1.078986	0.3303851	-0.0025215	0.0135853	-1.1583	0.4846921	-0.009603	-0.0195098	-3.32561	-3.303518	0.0644219	-0.0750983	0.2064469	0.3629115	-0.008671	0.0059181	-0.3708689	-0.6506227	0.0181033	-0.012784	0.1550767	-0.0371545	0.001637	0.0049214	-0.4178198	1.001799	-0.0387464	-0.0127225	-0.1068383	0.019866	-0.0014776	-0.0045283
	1	6	6328.125	0.0005974	0.0028228	1	0.0028854	78.0498	-0.0020705	3.566673	12	2.091497	0.0060356	-327.7158	0.023388	0.1087291	-122.2973	-144.4926	0.3319623	-0.4338482	-1.469339	0.5385896	-0.0029399	-0.0082624	-1.199934	0.2633979	-0.0025067	-0.0093443	-0.0775747	0.7523372	-0.0078951	-0.0001011	1.527618	-3.287588	0.0456667	0.0171349	0.2238852	-0.2630713	0.0046037	0.0033112	0.497497	-0.6606759	0.0130658	0.0081844	-0.1101799	-0.2109548	0.0043714	-0.0026242	-0.0304892	1.031844	-0.0248382	0.0011016	0.0006983	-0.0612755	0.0014307	-4.184247E-005
	2	8	3984.375	0.0005589	0.0017921	1	0.0018772	72.67864	-0.0017393	3.566676	12	2.097086	0.0039377	-327.7158	0.0183648	0.0860552	31.05071	187.2495	-0.3176126	0.1616828	-0.6969238	-0.8227967	0.002966	-0.0024281	-0.2244794	1.180542	-0.0059183	-0.0008556	-0.1486795	-0.4021669	0.0026824	-0.0010638	0.2935612	-2.764156	0.0239359	0.0003881	-0.2334752	0.1586216	-0.0016809	-0.0023456	0.7909153	0.2334144	-0.0019488	0.009568	-0.228255	0.0298138	-0.0007703	-0.0030019	-0.8498422	-0.3048688	0.0036426	-0.0134428	-0.0183361	-0.0704096	0.0011477	-0.0004623
	3	9	2527.573	0.0005364	0.0011384	1	0.0012584	64.76975	-0.0020658	3.566677	12	2.100455	0.002644	-327.7158	0.0147895	0.0682756	55.15783	181.934	-0.1771371	0.1608987	-0.5889357	-0.5017731	0.0015447	-0.0015767	-0.0101773	1.110102	-0.0036429	7.367134E-005	-0.0737123	-0.2490697	0.0010068	0.0001228	-0.9203935	-1.95515	0.0102377	-0.0064015	-0.0788087	0.2464954	-0.0017912	-0.0004603	0.7679956	-0.164924	0.0017178	0.0055714	-0.1627534	0.0997991	-0.001014	-0.0014169	-0.6074407	0.4910832	-0.0054564	-0.0055435	-0.0457562	-0.0669048	0.0008342	-0.0005786
	4	11	1577.524	0.000511	0.0006905	1	0.000859	53.49968	-0.0021121	3.566687	12	2.104313	0.0018082	-327.7158	0.0103179	0.044955	119.1208	-148.612	0.1635501	0.0060484	0.4679301	-0.1516774	8.535385E-005	0.0011239	0.0478587	0.6849474	4.756451E-005	0.0003803	-0.0897339	0.146244	-0.0001826	-0.0012137	1.509562	-0.2674817	0.0020971	0.0044587	-0.0664649	0.257246	-0.001477	-0.0003085	-0.3191622	-0.4920606	0.0020802	-0.0012099	-0.0312336	-0.0341649	-0.0001743	-0.0002131	-0.2608333	0.5197212	-0.0038838	-0.001456	-0.0645778	0.0982647	-0.0010824	-0.0006411
	5	13	998.264	0.0005359	0.0004225	1	0.0006824	38.25165	-0.0018415	3.56668	12	2.109051	0.0014397	-327.7158	0.006423	0.028543	-61.26689	-180.7904	0.043435	-0.1228588	-0.2422154	-0.2240863	0.0001283	-0.0003278	0.0149727	-0.4573197	0.0009289	0.0003027	0.0119369	-0.0669599	0.0001943	0.0002608	0.2862032	0.8430185	-0.0023119	0.0011191	-0.0908725	0.1235001	-0.000453	-0.0002333	-0.3602633	-0.0957663	-0.0002505	-0.0014486	-0.0466511	-0.0503917	0.0001793	-0.0003225	0.4421241	-0.1506517	0.0003264	0.0018284	0.0493603	-0.00453	1.358986E-005	0.0002139
	6	14	627.7902	0.0005506	0.0002578	1	0.000608	25.09108	-0.001935	3.566687	12	2.113985	0.0012856	-327.7158	0.003616	0.0182392	185.8915	45.31949	0.0907404	0.0728376	-0.0690468	0.1860786	-0.0005489	-0.0003521	0.0551406	-0.2205749	0.0011067	0.0003836	0.0199387	0.0075376	-0.0002675	-0.0003942	0.4420545	-0.2708576	0.00051	0.0009705	-0.075857	0.0235982	-0.0002204	-0.0002022	0.164068	-0.0487359	0.0001341	0.0003192	-0.0120957	0.0214154	0.0001593	2.002716E-005	0.2794034	0.0602884	0.0002103	0.0009898	-0.0215449	0.0006127	-0.0001129	-7.772447E-005
	7	16	397.9953	0.0005508	0.0001511	1	0.0005711	15.33819	-0.0021531	3.566689	12	2.118274	0.0012101	-327.7158	0.0025399	0.0131344	-170.62	-87.44715	-0.0808179	-0.0739272	-0.0966667	0.0901205	0.00052	0.0003545	-0.1071984	0.1240237	-0.0005503	0.0006008	0.0034778	0.0123098	-0.0002057	0.0005624	-0.3072243	-0.2079914	-4.792214E-005	-0.0001168	-0.0319376	-0.0480235	-0.0001509	-4.458428E-005	-0.0454857	-0.1213654	-0.0001855	-0.0007104	-0.0074282	-0.0163057	-6.985665E-005	-0.0002192	0.1085849	-0.1496527	9.059906E-005	0.0000973	0.0107394	-0.0150099	2.670288E-005	4.768372E-007
	8	17	252.4038	0.000576	8.520008E-005	1	0.0005823	8.413855	-0.0022175	3.56671	12	2.120656	0.0012352	-327.7158	0.0019438	0.0108603	49.04317	185.5686	0.0124724	0.111098	-0.07295	-0.0671727	-0.0006113	0.0006754	0.0059701	0.1445336	0.0001799	-0.0001583	-0.0027855	-0.000813	9.173155E-005	-0.000212	0.0392201	-0.2733026	0.0004891	-0.0002623	-0.0442234	0.0072	-4.327298E-005	4.863739E-005	0.087824	0.0828843	-6.818772E-005	0.0001998	0.0088391	-0.011288	7.152557E-005	-0.0001523	-0.1185974	-0.034829	-0.0003195	-0.0002009	0.00555	0.0094447	-3.647805E-005	-6.747247E-005
	9	19	158.3615	0.0005522	4.597276E-005	1	0.0005541	4.759281	-0.001702	3.566696	12	2.119569	0.0011748	-327.7158	0.00133	0.011413	-149.0085	-120.829	-0.0767603	-0.0735791	-0.0601499	0.026745	-3.647805E-005	0.0005707	-0.1113677	-0.0025635	-0.0002651	-0.0007269	-0.0005536	0.0023723	-0.0002043	0.0001225	0.0153584	-0.1663065	-0.0003827	0.0003986	0.0236586	-0.0230443	8.410215E-005	-0.00014	0.1092216	-0.0382753	0.0001824	0.0001333	0.0071478	0.0004282	-0.0001371	-0.0001101	0.045295	0.0616624	-0.0001557	0.0001869	-0.0021667	0.0079688	-0.0001307	2.145767E-006
	10	21	100.4464	0.0005775	1.955614E-005	1	0.0005779	1.939357	-0.0020011	3.566687	12	2.119709	0.0012253	-327.7158	0.0009543	0.0072513	-190.0358	-26.3522	-0.109273	-0.0189299	0.0003929	0.045664	-0.0003033	8.285046E-005	0.0055151	0.0715053	-0.0003119	-3.32594E-005	0.0015397	-0.0013498	-0.0002818	-0.0003806	-0.0674768	0.1012068	8.010864E-005	-5.984307E-005	-0.0167896	0.0138216	-8.702279E-005	-2.574921E-005	-0.0471729	0.0806391	-0.0003257	-0.0002317	-0.0038164	0.0041032	4.136562E-005	8.630753E-005	-0.0226842	0.0410726	4.559755E-005	-5.030633E-005	-0.0076559	-0.0009046	-0.0001683	-7.152558E-005
	11	22	63.3446	0.0006034	1.820173E-006	1	0.0006034	0.1728456	-0.0024562	3.566695	12	2.121522	0.0012804	-327.7158	0.0007461	0.0154131	-146.8857	-123.6754	-0.0884314	-0.0749047	-0.0265982	0.0146655	-6.937982E-005	0.0002042	-0.065949	0.0286896	0.0001929	-0.0011079	0.0120428	-0.0041502	0.0004194	-8.106233E-005	0.0540708	-0.0631621	0.0011725	0.00034	0.0150754	-0.0084167	-1.311302E-005	3.910065E-005	0.0500999	-0.0066302	-0.0002773	-0.0002155	-0.0003961	0.0045981	-0.0001701	0.0001097	0.0314413	0.0588102	-0.0001097	-8.535386E-005	-0.0039631	0.0041268	0.0001096	-0.0000958
	12	24	39.72458	0.0005923	-6.590333E-006	1	0.0005924	-0.6374554	-0.0019644	3.566691	12	2.120984	0.0012568	-327.7158	0.0004728	0.0021898	188.3742	-36.9791	0.1113534	-0.0232226	0.0142031	0.0118082	0.0001421	6.091595E-005	-0.0347867	-0.01313	0.0001159	-8.898974E-005	-0.0050435	0.0042024	-2.908707E-005	-3.826619E-005	-0.0318363	-0.0552966	-9.536744E-006	-1.013279E-005	0.0087175	0.005986	-8.344651E-006	6.079674E-005	-0.0345516	0.0012563	-2.31266E-005	-5.018712E-005	0.0024059	0.0018835	3.314018E-005	1.955032E-005	-0.0248721	0.0212299	-5.316735E-005	-1.072884E-006	0.0036895	-0.0006664	-5.24521E-006	-5.602838E-005
	13	25	24.93351	0.0006003	-1.10711E-005	1	0.0006004	-1.056637	-0.0019705	3.566694	12	2.120959	0.0012737	-327.7158	0.0003456	0.0021022	-167.852	93.15125	-0.09973	0.0578301	0.0125475	-0.0013696	0.0001283	-4.09484E-005	0.0197735	-0.019128	4.529953E-006	0.0001473	0.0022745	0.0064329	-3.004074E-005	-3.391505E-005	0.0474644	-0.0112514	-2.384186E-006	-4.786254E-005	0.0032315	-0.0057122	2.908707E-005	4.696846E-005	-0.0135102	-0.0184769	-2.0504E-005	-2.31266E-005	-3.790856E-005	-0.0030679	4.529953E-006	6.437302E-006	-0.0199227	0.0088067	-4.386903E-005	1.776218E-005	-0.0026777	-0.0004065	2.145767E-006	-9.071828E-005
	14	27	15.83615	0.0006068	-1.205976E-005	1	0.0006069	-1.138538	-0.0019809	3.566691	12	2.120774	0.0012876	-327.7158	0.0002792	0.0013778	85.23724	171.9873	0.0538397	0.103354	-0.0107772	0.002161	-0.0000989	3.606081E-006	0.0158627	0.0158645	-7.700921E-005	-5.364419E-007	0.0009602	0.0060078	2.336502E-005	4.351139E-005	0.0099901	-0.0403284	-3.623963E-005	-1.382828E-005	-0.0035843	0.0021628	7.152557E-007	-9.417535E-006	0.0132355	-0.0043999	-1.001358E-005	1.275539E-005	3.778934E-005	-0.0024733	1.049042E-005	1.716614E-005	0.0022348	0.0158613	-3.719331E-005	-1.728535E-005	0.000584	0.0030019	-1.049042E-005	-5.960465E-005
