EXPLAIN
TAG	GALVEIS
TITLE	LABEL	0050_EIS_+Westart_PEHV75AH	Test &Identifier
DATE	LABEL	12/15/2023	Date
TIME	LABEL	17:31:43	Time
NOTES	NOTES	1	&Notes...
	
PSTAT	PSTAT	REF3000-24148	Potentiostat
IDCREQ	QUANT	0.00000E+000	DC &Current (A)
FREQINIT	QUANT	1.00000E+004	Initial Fre&q. (Hz)
FREQFINAL	QUANT	1.00000E-002	Final Fre&q. (Hz)
PTSPERDEC	QUANT	5.00000E+000	Points/&decade
IACREQ	QUANT	2.12164E+000	AC &Current (A rms)
AREA	QUANT	0.00000E+000	&Area (cm^2)
CONDIT	TWOPARAM	F	1.50000E+001	0.00000E+000	Conditionin&g	Time(s)	E(V)
DELAY	TWOPARAM	T	3.00000E+001	0.00000E+000	Init. De&lay	Time(s)	Stab.(mV/s)
SPEED	SELECTOR	1	&Optimize for:
THD	SELECTOR	1	T&HD
DRIFTCOR	SELECTOR	0	&Drift Correction
ZGUESS	QUANT	1.00000E-003	E&stimated Z (ohms)
OCVCURVE	TABLE	116
	Pt	T	Vf	Vm	Ach	Over	Temp
	#	s	V vs. Ref.	V	V	bits	deg C
	0	0.258333	3.21679E+000	3.21679E+000	1.60052E-003	...........	-327.72
	1	0.516667	3.21679E+000	3.21677E+000	1.49525E-003	...........	-327.72
	2	0.775	3.21678E+000	3.21677E+000	1.60072E-003	...........	-327.72
	3	1.03333	3.21678E+000	3.21676E+000	1.49032E-003	...........	-327.72
	4	1.29167	3.21678E+000	3.21678E+000	1.60598E-003	...........	-327.72
	5	1.55	3.21677E+000	3.21677E+000	1.48785E-003	...........	-327.72
	6	1.80833	3.21677E+000	3.21677E+000	1.60778E-003	...........	-327.72
	7	2.06667	3.21677E+000	3.21677E+000	1.48192E-003	...........	-327.72
	8	2.325	3.21677E+000	3.21676E+000	1.59792E-003	...........	-327.72
	9	2.58333	3.21677E+000	3.21676E+000	1.48485E-003	...........	-327.72
	10	2.84167	3.21677E+000	3.21676E+000	1.59525E-003	...........	-327.72
	11	3.1	3.21676E+000	3.21676E+000	1.48832E-003	...........	-327.72
	12	3.35833	3.21676E+000	3.21676E+000	1.60332E-003	...........	-327.72
	13	3.61667	3.21676E+000	3.21675E+000	1.49212E-003	...........	-327.72
	14	3.875	3.21676E+000	3.21676E+000	1.60625E-003	...........	-327.72
	15	4.13333	3.21676E+000	3.21676E+000	1.48792E-003	...........	-327.72
	16	4.39167	3.21676E+000	3.21676E+000	1.59232E-003	...........	-327.72
	17	4.65	3.21676E+000	3.21675E+000	1.48325E-003	...........	-327.72
	18	4.90833	3.21676E+000	3.21676E+000	1.61192E-003	...........	-327.72
	19	5.16667	3.21676E+000	3.21676E+000	1.49032E-003	...........	-327.72
	20	5.425	3.21676E+000	3.21676E+000	1.60665E-003	...........	-327.72
	21	5.68333	3.21676E+000	3.21677E+000	1.48725E-003	...........	-327.72
	22	5.94167	3.21676E+000	3.21676E+000	1.59412E-003	...........	-327.72
	23	6.2	3.21676E+000	3.21676E+000	1.48732E-003	...........	-327.72
	24	6.45833	3.21677E+000	3.21676E+000	1.60845E-003	...........	-327.72
	25	6.71667	3.21676E+000	3.21676E+000	1.49132E-003	...........	-327.72
	26	6.975	3.21676E+000	3.21676E+000	1.59398E-003	...........	-327.72
	27	7.23333	3.21676E+000	3.21676E+000	1.48378E-003	...........	-327.72
	28	7.49167	3.21676E+000	3.21677E+000	1.60458E-003	...........	-327.72
	29	7.75	3.21676E+000	3.21676E+000	1.48258E-003	...........	-327.72
	30	8.00833	3.21676E+000	3.21677E+000	1.60078E-003	...........	-327.72
	31	8.26667	3.21676E+000	3.21675E+000	1.48685E-003	...........	-327.72
	32	8.525	3.21676E+000	3.21675E+000	1.60598E-003	...........	-327.72
	33	8.78333	3.21676E+000	3.21677E+000	1.49185E-003	...........	-327.72
	34	9.04167	3.21676E+000	3.21676E+000	1.60545E-003	...........	-327.72
	35	9.3	3.21676E+000	3.21676E+000	1.48198E-003	...........	-327.72
	36	9.5583	3.21676E+000	3.21676E+000	1.60485E-003	...........	-327.72
	37	9.8167	3.21676E+000	3.21676E+000	1.49065E-003	...........	-327.72
	38	10.075	3.21676E+000	3.21675E+000	1.61398E-003	...........	-327.72
	39	10.3333	3.21676E+000	3.21677E+000	1.49018E-003	...........	-327.72
	40	10.5917	3.21676E+000	3.21676E+000	1.61065E-003	...........	-327.72
	41	10.85	3.21676E+000	3.21675E+000	1.48398E-003	...........	-327.72
	42	11.1083	3.21676E+000	3.21677E+000	1.60585E-003	...........	-327.72
	43	11.3667	3.21676E+000	3.21677E+000	1.48605E-003	...........	-327.72
	44	11.625	3.21676E+000	3.21677E+000	1.59978E-003	...........	-327.72
	45	11.8833	3.21676E+000	3.21676E+000	1.47772E-003	...........	-327.72
	46	12.1417	3.21677E+000	3.21675E+000	1.59952E-003	...........	-327.72
	47	12.4	3.21676E+000	3.21678E+000	1.48232E-003	...........	-327.72
	48	12.6583	3.21676E+000	3.21675E+000	1.60065E-003	...........	-327.72
	49	12.9167	3.21676E+000	3.21677E+000	1.47845E-003	...........	-327.72
	50	13.175	3.21676E+000	3.21676E+000	1.60858E-003	...........	-327.72
	51	13.4333	3.21676E+000	3.21677E+000	1.48258E-003	...........	-327.72
	52	13.6917	3.21677E+000	3.21677E+000	1.60845E-003	...........	-327.72
	53	13.95	3.21677E+000	3.21677E+000	1.48732E-003	...........	-327.72
	54	14.2083	3.21677E+000	3.21676E+000	1.59725E-003	...........	-327.72
	55	14.4667	3.21677E+000	3.21676E+000	1.47752E-003	...........	-327.72
	56	14.725	3.21677E+000	3.21676E+000	1.59032E-003	...........	-327.72
	57	14.9833	3.21676E+000	3.21676E+000	1.48025E-003	...........	-327.72
	58	15.2417	3.21676E+000	3.21676E+000	1.59618E-003	...........	-327.72
	59	15.5	3.21676E+000	3.21676E+000	1.48318E-003	...........	-327.72
	60	15.7583	3.21676E+000	3.21674E+000	1.59458E-003	...........	-327.72
	61	16.0167	3.21676E+000	3.21677E+000	1.48165E-003	...........	-327.72
	62	16.275	3.21675E+000	3.21675E+000	1.58738E-003	...........	-327.72
	63	16.5333	3.21675E+000	3.21676E+000	1.48292E-003	...........	-327.72
	64	16.7917	3.21676E+000	3.21677E+000	1.60218E-003	...........	-327.72
	65	17.05	3.21676E+000	3.21675E+000	1.47732E-003	...........	-327.72
	66	17.3083	3.21676E+000	3.21676E+000	1.60012E-003	...........	-327.72
	67	17.5667	3.21676E+000	3.21676E+000	1.49165E-003	...........	-327.72
	68	17.825	3.21676E+000	3.21675E+000	1.60358E-003	...........	-327.72
	69	18.0833	3.21676E+000	3.21677E+000	1.48645E-003	...........	-327.72
	70	18.3417	3.21676E+000	3.21675E+000	1.59225E-003	...........	-327.72
	71	18.6	3.21676E+000	3.21677E+000	1.48918E-003	...........	-327.72
	72	18.8583	3.21676E+000	3.21675E+000	1.60178E-003	...........	-327.72
	73	19.1167	3.21676E+000	3.21676E+000	1.48292E-003	...........	-327.72
	74	19.375	3.21676E+000	3.21676E+000	1.60218E-003	...........	-327.72
	75	19.6333	3.21676E+000	3.21675E+000	1.48958E-003	...........	-327.72
	76	19.8917	3.21676E+000	3.21676E+000	1.60592E-003	...........	-327.72
	77	20.15	3.21676E+000	3.21676E+000	1.48918E-003	...........	-327.72
	78	20.4083	3.21676E+000	3.21675E+000	1.59398E-003	...........	-327.72
	79	20.6667	3.21676E+000	3.21676E+000	1.47832E-003	...........	-327.72
	80	20.925	3.21676E+000	3.21675E+000	1.59972E-003	...........	-327.72
	81	21.1833	3.21676E+000	3.21676E+000	1.48412E-003	...........	-327.72
	82	21.4417	3.21676E+000	3.21676E+000	1.60272E-003	...........	-327.72
	83	21.7	3.21676E+000	3.21677E+000	1.49238E-003	...........	-327.72
	84	21.9583	3.21676E+000	3.21676E+000	1.60472E-003	...........	-327.72
	85	22.2167	3.21676E+000	3.21676E+000	1.35165E-003	...........	-327.72
	86	22.475	3.21676E+000	3.21676E+000	1.29132E-003	...........	-327.72
	87	22.7333	3.21676E+000	3.21676E+000	1.29105E-003	...........	-327.72
	88	22.9917	3.21676E+000	3.21676E+000	1.29452E-003	...........	-327.72
	89	23.25	3.21676E+000	3.21676E+000	1.29865E-003	...........	-327.72
	90	23.5083	3.21676E+000	3.21676E+000	1.29692E-003	...........	-327.72
	91	23.7667	3.21676E+000	3.21675E+000	1.29038E-003	...........	-327.72
	92	24.025	3.21676E+000	3.21676E+000	1.29918E-003	...........	-327.72
	93	24.2833	3.21676E+000	3.21677E+000	1.29298E-003	...........	-327.72
	94	24.5417	3.21676E+000	3.21676E+000	1.29292E-003	...........	-327.72
	95	24.8	3.21676E+000	3.21676E+000	1.28932E-003	...........	-327.72
	96	25.0583	3.21676E+000	3.21677E+000	1.29412E-003	...........	-327.72
	97	25.3167	3.21676E+000	3.21676E+000	1.30065E-003	...........	-327.72
	98	25.575	3.21676E+000	3.21675E+000	1.30085E-003	...........	-327.72
	99	25.8333	3.21676E+000	3.21676E+000	1.29652E-003	...........	-327.72
	100	26.0917	3.21676E+000	3.21675E+000	1.29505E-003	...........	-327.72
	101	26.35	3.21676E+000	3.21675E+000	1.29138E-003	...........	-327.72
	102	26.6083	3.21675E+000	3.21675E+000	1.29378E-003	...........	-327.72
	103	26.8667	3.21675E+000	3.21675E+000	1.30045E-003	...........	-327.72
	104	27.125	3.21675E+000	3.21676E+000	1.29318E-003	...........	-327.72
	105	27.3833	3.21675E+000	3.21676E+000	1.29538E-003	...........	-327.72
	106	27.6417	3.21675E+000	3.21676E+000	1.29572E-003	...........	-327.72
	107	27.9	3.21676E+000	3.21676E+000	1.29685E-003	...........	-327.72
	108	28.1583	3.21676E+000	3.21675E+000	1.29238E-003	...........	-327.72
	109	28.4167	3.21676E+000	3.21676E+000	1.29185E-003	...........	-327.72
	110	28.675	3.21676E+000	3.21676E+000	1.29432E-003	...........	-327.72
	111	28.9333	3.21676E+000	3.21676E+000	1.29205E-003	...........	-327.72
	112	29.1917	3.21676E+000	3.21677E+000	1.29412E-003	...........	-327.72
	113	29.45	3.21676E+000	3.21677E+000	1.29298E-003	...........	-327.72
	114	29.7083	3.21676E+000	3.21676E+000	1.29685E-003	...........	-327.72
	115	29.9667	3.21676E+000	3.21677E+000	1.30345E-003	...........	-327.72
EOC	QUANT	3.216765	Open Circuit (V)
PSTATMODEL	IQUANT	5	Pstat Model
PSTATSECTION	LABEL	REF3000-24148	Pstat Section
PSTATSERIALNO	LABEL	24148	Pstat Serial Number
CTRLMODE	IQUANT	0	Control Mode
ELECTROMETER	IQUANT	0	RE=0 or CS=1
IESTAB	IQUANT	0	I/E Stability
CASPEED	IQUANT	4	Control Amp Speed
CONVENTION	IQUANT	1	Current Convention
ICHRANGE	IQUANT	2	Ich Range
ICHRANGEMODE	TOGGLE	F	Ich Auto Range
ICHOFFSETENABLE	TOGGLE	T	Ich Offset Enable
ICHOFFSET	QUANT	0	Ich Offset (V)
ICHFILTER	IQUANT	3	Ich Filter
VCHRANGE	IQUANT	2	Vch Range
VCHRANGEMODE	TOGGLE	F	Vch Auto Range
VCHOFFSETENABLE	TOGGLE	T	Vch Offset Enable
VCHOFFSET	QUANT	0	Vch Offset (V)
VCHFILTER	IQUANT	3	Vch Filter
ACHRANGE	IQUANT	2	Ach Range
ACHOFFSETENABLE	TOGGLE	F	Ach Offset Enable
ACHOFFSET	QUANT	0	Ach Offset (V)
ACHFILTER	IQUANT	1	Ach Filter
IERANGELOWERLIMIT	IQUANT	2	I/E Range Lower Limit
IERANGEMODE	TOGGLE	F	I/E AutoRange
IERANGE	IQUANT	11	I/E Range
POSFEEDENABLE	TOGGLE	F	Positive Feedback IR Comp
POSFEEDRESISTANCE	QUANT	0	Positive Feedback Resistance (ohm)
ACHSELECT	IQUANT	4	Ach Select
SENSECABLEID	IQUANT	14	Sense Cable ID
PWRCABLEID	IQUANT	7	Power Cable ID
DCCALDATE	LABEL	12/13/2023	DC Calibration Date
ACCALDATE	LABEL	12/13/2023	AC Calibration Date
THERMOSELECT	IQUANT	1	Thermo Select
FRAMEWORKVERSION	LABEL	7.10.2	Framework Version
INSTRUMENTVERSION	LABEL	4.90	Instrument Version
COMMVERSION	LABEL	2.24	Communications Version
CPUPLDVERSION	LABEL	0.00	CPU PLD Version
CTRLPLDVERSION	LABEL	0.00	CTRL PLD Version
PSTATPLDVERSION	LABEL	0.00	PSTAT PLD Version
COMPLIANCEVOLTAGE	IQUANT	0	Compliance Voltage
ZCURVE	TABLE
	Pt	Time	Freq	Zreal	Zimag	Zsig	Zmod	Zphz	Idc	Vdc	IERange	Imod	Vmod	Temp	Ithd	Vthd	IHr1	IHi1	VHr1	VHi1	IHr2	IHi2	VHr2	VHi2	IHr3	IHi3	VHr3	VHi3	IHr4	IHi4	VHr4	VHi4	IHr5	IHi5	VHr5	VHi5	IHr6	IHi6	VHr6	VHi6	IHr7	IHi7	VHr7	VHi7	IHr8	IHi8	VHr8	VHi8	IHr9	IHi9	VHr9	VHi9	IHr10	IHi10	VHr10	VHi10
	#	s	Hz	ohm	ohm	V	ohm	°	A	V	#	A	V	°C	#	#	A	A	V	V	A	A	V	V	A	A	V	V	A	A	V	V	A	A	V	V	A	A	V	V	A	A	V	V	A	A	V	V	A	A	V	V	A	A	V	V
	0	5	10078.13	0.0006439	0.0043262	1	0.0043739	81.53383	-0.0017177	3.216765	12	2.080194	0.0090978	-327.7158	0.0287862	0.1313574	-84.49431	-168.2533	0.6683557	-0.4809867	-2.235134	0.2396767	-0.0026109	-0.0186226	-0.527748	1.07474	-0.0141273	-0.0047262	-0.4481146	1.10485	-0.0189742	-0.0059984	4.376427	-0.3622181	0.0141225	0.0892774	0.4968014	-0.0317382	0.0016487	0.0122218	0.4982398	-0.3137796	0.0103646	0.0133512	0.0006502	-0.1689825	0.0054727	-0.0005049	-1.151812	-0.4684938	0.0136473	-0.0434041	0.025059	0.1080379	-0.0042853	0.0012689
	1	7	6328.125	0.0005884	0.0027482	1	0.0028105	77.91612	-0.0019381	3.216779	12	2.091969	0.0058803	-327.7158	0.0211909	0.101336	-69.8132	-176.0029	0.440697	-0.2984179	-1.450051	-0.4771493	0.0020823	-0.0073147	-0.7105406	-0.0868465	4.076958E-005	-0.0050666	-0.6894357	0.17785	-0.0022914	-0.0076938	2.804517	1.726	-0.0197031	0.0381866	0.1752563	0.3752538	-0.0056654	0.0032165	0.1866548	0.5230488	-0.009078	0.0041296	0.1987371	0.137237	-0.0026288	0.0043358	-0.0838431	-1.165719	0.0270016	-0.0041438	-0.0163276	0.0199199	-0.0006981	-0.0003495
	2	9	3984.375	0.0005562	0.0017438	1	0.0018303	72.30844	-0.0023826	3.216792	12	2.097526	0.0038401	-327.7158	0.0158837	0.0771027	186.5729	35.10246	0.0440319	0.3447628	-0.036304	1.044901	-0.0032786	0.0001791	-0.3792435	-0.5171121	0.002162	-0.0017706	0.3224218	-0.2396326	0.001875	0.0022423	0.8625612	-2.295466	0.0197668	0.0054801	-0.0328275	0.3243855	-0.0031803	-1.457334E-005	-0.2137704	-0.5146878	0.005587	-0.0029426	0.2038511	-0.0818716	0.0011778	0.0026872	0.480588	-0.8469769	0.0132225	0.0060601	0.0114924	-0.0219518	0.0002944	5.865097E-005
	3	10	2527.573	0.0005334	0.0011084	1	0.0012301	64.30154	-0.0019259	3.216771	12	2.100698	0.0025847	-327.7158	0.012299	0.0585847	-124.1704	-143.9876	0.0928133	-0.2147404	-0.7295108	0.0792427	-9.465219E-005	-0.002054	-0.6245508	-0.1307125	0.0003083	-0.0022204	-0.1873292	0.1173663	-0.0001912	-0.0007956	1.178515	-1.430059	0.0081911	0.0055649	0.2501397	-0.1080138	0.0008385	0.0018046	0.549453	0.0424414	-6.985665E-005	0.0042022	0.1383221	-0.1016529	0.0009923	0.0010265	-0.3474461	0.7142313	-0.0069501	-0.002774	0.0344117	0.0214985	-0.0002586	0.000349
	4	12	1577.524	0.0005195	0.00067	1	0.0008478	52.2108	-0.002187	3.216793	12	2.104229	0.0017844	-327.7158	0.0082801	0.039551	-102.7847	160.3361	-0.1608392	0.0147021	0.3994429	-0.2234483	0.0007017	0.0005336	-0.1938738	-0.300498	0.0002407	-0.000411	0.0308533	0.141389	-0.0003071	-0.0003532	-0.999889	0.7844931	-0.0025339	-0.0036128	0.0584248	0.2582762	-0.0012255	0.000385	0.3619	0.1857328	-0.0007632	0.0014946	-0.0243391	-0.0031688	-0.0002444	-0.000612	-0.1622238	-0.4949999	0.0033979	-0.0016408	0.0229585	0.0726194	-0.0009756	0.0001357
	5	14	998.264	0.0005399	0.000399	1	0.0006713	36.4676	-0.002052	3.216784	12	2.109247	0.0014165	-327.7158	0.0050598	0.02913	6.779657	-190.7869	0.0797067	-0.1004131	-0.0257618	-0.3125457	0.0006857	-9.250642E-005	0.2025638	-0.1203302	-0.0002613	0.0013154	0.0501446	-0.0160062	-0.0004016	0.0001655	-0.7249111	0.0047795	-0.0006435	-0.0022769	-0.0198767	-0.1373019	0.0006957	-2.884865E-005	0.214691	-0.075634	-0.0005691	0.0007856	0.0348122	0.0296435	-0.0004482	0.0001794	-0.4179129	0.043334	-0.00122	-0.0016456	-0.0259137	-0.02407	0.0001639	-2.527237E-005
	6	15	627.7902	0.0005276	0.0002516	1	0.0005845	25.49959	-0.0018184	3.216788	12	2.113474	0.0012357	-327.7158	0.0028693	0.0163557	-158.758	106.7131	-0.1106298	0.0164282	0.1759921	0.0466017	-0.0003053	-0.0006559	0.0646308	-0.0920525	0.0009269	-0.0010085	-0.0339226	0.0089412	-0.0004232	-0.0003223	0.0339261	-0.4173269	0.0004675	0.0003859	-0.0375286	-0.0665327	9.411573E-005	-4.053117E-005	-0.0834587	-0.011851	-0.0001587	-1.66893E-005	0.0012442	0.0088229	0.0001352	0.0001404	-0.1535871	0.2044226	-0.0004361	-0.0001755	0.0032508	0.0227247	3.671646E-005	-2.384186E-007
	7	17	397.9953	0.0005463	0.0001399	1	0.0005639	14.36391	-0.0017063	3.216788	12	2.11617	0.0011937	-327.7158	0.0018574	0.0092447	189.1424	-30.17227	0.1075849	0.0099353	0.0641354	0.1130168	0.0001206	-7.128717E-005	-0.0852361	-0.0187891	-0.0001387	-0.0002429	-0.0068054	-0.0173323	-0.0001289	6.127357E-005	-0.2179451	-0.1453977	0.0005708	0.0002637	0.0450571	0.0165745	-1.168251E-005	0.0001249	-0.0982652	0.0147204	-0.0001678	-0.0002051	0.0079298	-0.0038114	1.263619E-005	0.0002505	-0.1410029	0.0282806	5.674362E-005	-0.0005658	0.0095358	-0.0063076	3.612041E-005	0.0001028
	8	18	252.4038	0.0005688	6.618402E-005	1	0.0005727	6.636579	-0.0019934	3.216784	12	2.118047	0.0012133	-327.7158	0.0014327	0.009102	-40.00062	187.484	-0.0351448	0.1040402	0.0171823	-0.0864554	0.0001848	-0.0001016	-0.0853049	-0.0055824	0.000441	-0.0005133	0.0054815	-0.0061658	-0.0003473	-0.0002778	0.1300351	0.1510159	3.85344E-005	0.00018	0.0357181	-0.0195688	-1.871586E-005	0.0002923	-0.0520671	-0.058997	0.0002058	-1.645088E-005	-0.0046026	0.0003627	4.529953E-006	-2.837181E-005	-0.002945	0.1121882	-0.0003254	0.0001411	0.0104115	0.0020572	-1.096726E-005	-0.0000995
	9	20	158.3615	0.0005887	2.420613E-005	1	0.0005892	2.354365	-0.0021446	3.216801	12	2.120812	0.0012501	-327.7158	0.0010241	0.0074619	-33.68472	188.9753	-0.024395	0.110481	0.0094227	-0.0571081	-0.0004091	-0.0001132	-0.0457087	0.0156675	-8.726121E-005	-0.0001256	-0.0057064	-0.0102813	2.31266E-005	0.0001659	0.0962087	0.1188023	-0.0002266	-6.604196E-005	0.0186921	-0.0148859	1.570582E-005	3.886223E-005	-0.0511056	-0.0219343	-0.0002887	0.0003355	-0.008784	0.0023076	-3.588201E-005	6.961823E-005	0.0172752	0.0732794	0.0002692	0.0003698	0.0040403	-0.0045781	-1.955032E-005	-0.0001097
	10	22	100.4464	0.0005792	-2.086282E-006	1	0.0005792	-0.2063799	-0.001671	3.216792	12	2.119215	0.0012278	-327.7158	0.0006837	0.0060417	-12.35483	-191.4111	-0.0075693	-0.1108717	-0.0142515	-0.0308062	-0.0002248	-7.194282E-005	0.0345331	-0.0228266	0.0001233	-0.0001484	-0.0032123	-0.0029413	5.674362E-005	-0.0001007	-0.0925771	0.0295621	5.245209E-005	0.0002542	-0.0065519	-0.0176335	-4.124642E-005	-1.811981E-005	0.0355437	-0.0368802	0.0004505	9.10759E-005	0.001071	0.0028852	-0.0000981	-3.218652E-005	-0.0107209	0.041456	0.0002159	9.298325E-006	-0.0038024	-0.0060092	3.951788E-005	-7.033349E-005
	11	23	63.3446	0.0006125	-2.639973E-005	1	0.0006131	-2.467836	-0.0021398	3.216808	12	2.12146	0.0013011	-327.7158	0.0005832	0.0105025	-187.4214	41.73842	-0.1137343	0.0305313	0.0211411	0.0184477	0.0002992	-7.212163E-005	0.0344701	-0.0187531	-9.298326E-006	0.0001475	-0.0099537	0.0095634	-7.510186E-005	1.955032E-005	0.0569899	0.0693316	0.0001459	-0.0007522	0.012614	0.0009074	0.0001171	-0.0001671	0.0128068	8.964539E-005	-0.0003359	-0.0006123	0.0042366	0.0033159	-3.57628E-006	-7.748605E-005	0.018719	-0.0353205	-1.907349E-006	0.0005267	-0.0018266	-0.0039272	-1.960993E-005	-8.249284E-005
	12	25	39.72458	0.0006194	-4.072241E-005	1	0.0006207	-3.761752	-0.0019405	3.216788	12	2.120486	0.0013166	-327.7158	0.0003725	0.002349	-99.0751	164.375	-0.0546179	0.105907	0.008705	-0.0156168	8.964539E-005	-0.0001566	-0.0208542	-0.0166169	0.000138	-4.464389E-005	0.0072391	-0.0042479	3.099441E-005	-3.099442E-006	-0.0514747	-0.0081672	2.217293E-005	6.347895E-005	-0.002459	0.0078774	1.28746E-005	3.397465E-005	0.0199292	0.0097235	3.504753E-005	1.66893E-005	0.0021424	0.0011362	3.0756E-005	2.014637E-005	-0.0116209	-0.0241834	3.600121E-005	-1.573563E-005	-0.0015837	-0.0023512	-0.0001025	5.507469E-005
	13	27	24.93351	0.000638	-5.524833E-005	1	0.0006404	-4.948938	-0.0020072	3.216792	12	2.120062	0.0013582	-327.7158	0.0003033	0.0022416	134.5566	-136.8021	0.07828	-0.0947786	0.0095687	-0.0042951	0.0001035	-0.0001703	0.0056027	0.0199497	5.483627E-006	2.95043E-005	0.0026119	-0.0003487	-2.861023E-005	-3.159046E-006	-0.0050007	0.0465171	8.630753E-005	-2.628565E-005	-0.0051184	-0.005947	-1.430512E-006	7.635355E-005	0.00016	-0.018747	4.291534E-005	1.072884E-005	-0.0016246	0.0009106	-0.0000997	-3.492833E-005	-0.0121251	-0.0092025	-1.358986E-005	1.192093E-006	0.0017147	0.0010117	-2.121925E-005	-8.237363E-005
	14	29	15.83615	0.0006565	-6.875716E-005	1	0.0006601	-5.978536	-0.0019052	3.216797	12	2.120248	0.0014001	-327.7158	0.0002524	0.0012325	101.7077	-162.7337	0.0555747	-0.1138837	0.0017856	-0.0099719	3.33786E-005	-3.334881E-005	0.0182815	0.0096558	-7.963182E-005	-5.662442E-006	0.0045663	-0.0045179	5.912781E-005	-2.282858E-005	0.0281371	0.0255249	4.768372E-005	-1.341105E-005	-0.003715	0.0031516	3.528595E-005	1.579523E-005	-0.0076896	-0.004805	1.716614E-005	-3.57628E-005	0.0013109	0.0028821	4.386902E-005	-5.483628E-006	0.0066751	0.0129095	-2.622604E-006	-6.437303E-005	6.473064E-005	-0.0021685	-1.168251E-005	3.814697E-006
